***BUSMASTER Ver 3.2.2***
***PROTOCOL CAN***
***NOTE: PLEASE DO NOT EDIT THIS DOCUMENT***
***[START LOGGING SESSION]***
***START DATE AND TIME 17:5:2022 22:20:9:399***
***HEX***
***SYSTEM MODE***
***START CHANNEL BAUD RATE***
***CHANNEL 1 - Simulation - 500000 bps***
***END CHANNEL BAUD RATE***
***START DATABASE FILES***
***C:\Users\ianre\Desktop\IMU\sbgCan.dbf***
***END DATABASE FILES***
***<Time><Tx/Rx><Channel><CAN ID><Type><DLC><DataBytes>***
22:20:09:4050 Rx 1 0x205 s 5 00 00 00 00 00 
22:20:09:4116 Rx 1 0x205 s 5 00 00 00 00 00 
22:20:09:4215 Rx 1 0x625 s 8 00 00 00 00 00 00 00 00 
22:20:09:4216 Rx 1 0x205 s 5 00 00 00 00 00 
22:20:09:4251 Rx 1 0x5FE s 8 00 00 00 00 00 00 01 5E 
22:20:09:4310 Rx 1 0x121 s 6 50 FF E6 FF 3C FC 
22:20:09:4312 Rx 1 0x132 s 6 E4 00 ED F8 E3 CA 
22:20:09:4314 Rx 1 0x175 s 8 00 00 00 00 00 00 00 00 
22:20:09:4454 Rx 1 0x5F1 s 8 00 00 00 00 93 93 01 01 
22:20:09:4620 Rx 1 0x5F2 s 8 03 F2 00 00 FF FF FF FF 
22:20:09:4654 Rx 1 0x205 s 5 00 00 00 00 00 
22:20:09:4710 Rx 1 0x121 s 6 51 FF E8 FF 3E FC 
22:20:09:4712 Rx 1 0x132 s 6 E4 00 ED F8 E6 CA 
22:20:09:4858 Rx 1 0x205 s 5 00 00 00 00 00 
22:20:09:5059 Rx 1 0x5FE s 8 00 00 00 00 00 00 01 5E 
22:20:09:5084 Rx 1 0x205 s 5 00 00 00 00 00 
22:20:09:5109 Rx 1 0x121 s 6 4F FF E6 FF 3E FC 
22:20:09:5112 Rx 1 0x132 s 6 E4 00 ED F8 E9 CA 
22:20:09:5121 Rx 1 0x205 s 5 00 00 00 00 00 
22:20:09:5262 Rx 1 0x205 s 5 00 00 00 00 00 
22:20:09:5464 Rx 1 0x5FD s 8 00 00 00 00 00 00 00 00 
22:20:09:5511 Rx 1 0x121 s 6 52 FF E7 FF 3D FC 
22:20:09:5512 Rx 1 0x132 s 6 E4 00 ED F8 ED CA 
22:20:09:5624 Rx 1 0x5FE s 8 00 00 00 00 00 00 01 5E 
22:20:09:5664 Rx 1 0x205 s 5 00 00 00 00 00 
22:20:09:5864 Rx 1 0x205 s 5 00 00 00 00 00 
22:20:09:5910 Rx 1 0x121 s 6 51 FF E6 FF 3D FC 
22:20:09:5912 Rx 1 0x132 s 6 E4 00 ED F8 F0 CA 
22:20:09:5935 Rx 1 0x5FE s 8 00 00 00 00 00 00 01 5E 
22:20:09:6065 Rx 1 0x205 s 5 00 00 00 00 00 
22:20:09:6125 Rx 1 0x205 s 5 00 00 00 00 00 
22:20:09:6181 Rx 1 0x625 s 8 00 00 00 00 00 00 00 00 
22:20:09:6217 Rx 1 0x205 s 5 00 00 00 00 00 
22:20:09:6220 Rx 1 0x5FE s 8 00 00 00 00 00 00 01 5E 
22:20:09:6266 Rx 1 0x5FF s 8 02 BC FF F6 00 00 FF A6 
22:20:09:6309 Rx 1 0x121 s 6 51 FF E6 FF 3E FC 
22:20:09:6312 Rx 1 0x132 s 6 E4 00 ED F8 F3 CA 
22:20:09:6314 Rx 1 0x175 s 8 00 00 00 00 00 00 00 00 
22:20:09:6468 Rx 1 0x5F1 s 8 00 00 00 00 93 93 01 01 
22:20:09:6627 Rx 1 0x5F2 s 8 03 F2 00 00 FF FF FF FF 
22:20:09:6669 Rx 1 0x205 s 5 00 00 00 00 00 
22:20:09:6710 Rx 1 0x121 s 6 51 FF E7 FF 3D FC 
22:20:09:6711 Rx 1 0x132 s 6 E4 00 ED F8 F7 CA 
22:20:09:6873 Rx 1 0x205 s 5 00 00 00 00 00 
22:20:09:7074 Rx 1 0x5FE s 8 00 00 00 00 00 00 01 5E 
22:20:09:7078 Rx 1 0x205 s 5 00 00 00 00 00 
22:20:09:7081 Rx 1 0x205 s 5 00 00 00 00 00 
22:20:09:7085 Rx 1 0x205 s 5 00 00 00 00 00 
22:20:09:7110 Rx 1 0x121 s 6 50 FF E7 FF 3D FC 
22:20:09:7111 Rx 1 0x132 s 6 E4 00 ED F8 FA CA 
22:20:09:7129 Rx 1 0x200 s 0 
22:20:09:7279 Rx 1 0x201 s 8 00 00 0F 00 14 14 00 00 
22:20:09:7484 Rx 1 0x5FD s 8 00 00 00 00 00 00 00 00 
22:20:09:7510 Rx 1 0x121 s 6 52 FF E6 FF 3E FC 
22:20:09:7512 Rx 1 0x132 s 6 E4 00 ED F8 FD CA 
22:20:09:7632 Rx 1 0x5FE s 8 00 00 00 00 00 00 01 5E 
22:20:09:7685 Rx 1 0x205 s 5 00 00 00 00 00 
22:20:09:7889 Rx 1 0x205 s 5 00 00 00 00 00 
22:20:09:7909 Rx 1 0x121 s 6 51 FF E7 FF 3D FC 
22:20:09:7912 Rx 1 0x132 s 6 E4 00 ED F8 01 CB 
22:20:09:7938 Rx 1 0x5FE s 8 00 00 00 00 00 00 01 5E 
22:20:09:8090 Rx 1 0x205 s 5 00 00 00 00 00 
22:20:09:8134 Rx 1 0x205 s 5 00 00 00 00 00 
22:20:09:8218 Rx 1 0x625 s 8 00 00 00 00 00 00 00 00 
22:20:09:8220 Rx 1 0x205 s 5 00 00 00 00 00 
22:20:09:8291 Rx 1 0x5FE s 8 00 00 00 00 00 00 01 5E 
22:20:09:8310 Rx 1 0x121 s 6 53 FF E7 FF 3E FC 
22:20:09:8312 Rx 1 0x132 s 6 E4 00 ED F8 04 CB 
22:20:09:8315 Rx 1 0x175 s 8 00 00 00 00 00 00 00 00 
22:20:09:8493 Rx 1 0x5F1 s 8 00 00 00 00 93 93 01 01 
22:20:09:8637 Rx 1 0x5F2 s 8 03 F2 00 00 FF FF FF FF 
22:20:09:8697 Rx 1 0x205 s 5 00 00 00 00 00 
22:20:09:8710 Rx 1 0x121 s 6 50 FF E6 FF 3D FC 
22:20:09:8712 Rx 1 0x132 s 6 E4 00 ED F8 07 CB 
22:20:09:8897 Rx 1 0x205 s 5 00 00 00 00 00 
22:20:09:9089 Rx 1 0x5FE s 8 00 00 00 00 00 00 01 5E 
22:20:09:9098 Rx 1 0x205 s 5 00 00 00 00 00 
22:20:09:9110 Rx 1 0x121 s 6 52 FF E6 FF 3D FC 
22:20:09:9112 Rx 1 0x132 s 6 E3 00 ED F8 0B CB 
22:20:09:9139 Rx 1 0x205 s 5 00 00 00 00 00 
22:20:09:9301 Rx 1 0x5FD s 8 00 00 00 00 00 00 00 00 
22:20:09:9503 Rx 1 0x205 s 5 00 00 00 00 00 
22:20:09:9510 Rx 1 0x121 s 6 52 FF E7 FF 3E FC 
22:20:09:9512 Rx 1 0x132 s 6 E4 00 ED F8 0E CB 
22:20:09:9645 Rx 1 0x5FE s 8 00 00 00 00 00 00 01 5E 
22:20:09:9703 Rx 1 0x205 s 5 00 00 00 00 00 
22:20:09:9906 Rx 1 0x205 s 5 00 00 00 00 00 
22:20:09:9909 Rx 1 0x121 s 6 4F FF E5 FF 3F FC 
22:20:09:9911 Rx 1 0x132 s 6 E4 00 ED F8 11 CB 
22:20:09:9939 Rx 1 0x5FE s 8 00 00 00 00 00 00 01 5E 
22:20:10:0108 Rx 1 0x205 s 5 00 00 00 00 00 
22:20:10:0148 Rx 1 0x205 s 5 00 00 00 00 00 
22:20:10:0219 Rx 1 0x625 s 8 00 00 00 00 00 00 00 00 
22:20:10:0221 Rx 1 0x205 s 5 00 00 00 00 00 
22:20:10:0310 Rx 1 0x5FE s 8 00 00 00 00 00 00 01 5E 
22:20:10:0312 Rx 1 0x121 s 6 52 FF E7 FF 3D FC 
22:20:10:0315 Rx 1 0x132 s 6 E3 00 ED F8 14 CB 
22:20:10:0316 Rx 1 0x175 s 8 00 00 00 00 00 00 00 00 
22:20:10:0511 Rx 1 0x5F1 s 8 00 00 00 00 93 93 01 01 
22:20:10:0649 Rx 1 0x5F2 s 8 03 F2 00 00 FF FF FF FF 
22:20:10:0710 Rx 1 0x121 s 6 50 FF E5 FF 3D FC 
22:20:10:0711 Rx 1 0x132 s 6 E3 00 ED F8 18 CB 
22:20:10:0714 Rx 1 0x205 s 5 00 00 00 00 00 
22:20:10:0916 Rx 1 0x205 s 5 00 00 00 00 00 
22:20:10:1092 Rx 1 0x5FE s 8 00 00 00 00 00 00 01 5E 
22:20:10:1109 Rx 1 0x121 s 6 50 FF E7 FF 3D FC 
22:20:10:1111 Rx 1 0x132 s 6 E3 00 ED F8 1B CB 
22:20:10:1117 Rx 1 0x205 s 5 00 00 00 00 00 
22:20:10:1151 Rx 1 0x205 s 5 00 00 00 00 00 
22:20:10:1184 Rx 1 0x5FD s 8 00 00 00 00 00 00 00 00 
22:20:10:1319 Rx 1 0x205 s 5 00 00 00 00 00 
22:20:10:1510 Rx 1 0x121 s 6 50 FF E7 FF 3B FC 
22:20:10:1512 Rx 1 0x132 s 6 E3 00 ED F8 1E CB 
22:20:10:1524 Rx 1 0x5FE s 8 00 00 00 00 00 00 01 5E 
22:20:10:1655 Rx 1 0x5FF s 8 02 BC FF F6 00 00 FF A6 
22:20:10:1729 Rx 1 0x205 s 5 00 00 00 00 00 
22:20:10:1910 Rx 1 0x121 s 6 52 FF E6 FF 3F FC 
22:20:10:1911 Rx 1 0x132 s 6 E3 00 ED F8 22 CB 
22:20:10:1932 Rx 1 0x205 s 5 00 00 00 00 00 
22:20:10:1940 Rx 1 0x5FE s 8 00 00 00 00 00 00 01 5E 
22:20:10:2133 Rx 1 0x205 s 5 00 00 00 00 00 
22:20:10:2156 Rx 1 0x205 s 5 00 00 00 00 00 
22:20:10:2222 Rx 1 0x625 s 8 00 00 00 00 00 00 00 00 
22:20:10:2224 Rx 1 0x205 s 5 00 00 00 00 00 
22:20:10:2310 Rx 1 0x121 s 6 50 FF E7 FF 3E FC 
22:20:10:2312 Rx 1 0x132 s 6 E3 00 ED F8 25 CB 
22:20:10:2314 Rx 1 0x175 s 8 00 00 00 00 00 00 00 00 
22:20:10:2338 Rx 1 0x5FE s 8 00 00 00 00 00 00 01 5E 
22:20:10:2537 Rx 1 0x5F1 s 8 00 00 00 00 93 93 01 01 
22:20:10:2659 Rx 1 0x5F2 s 8 03 F2 00 00 FF FF FF FF 
22:20:10:2710 Rx 1 0x121 s 6 51 FF E6 FF 3C FC 
22:20:10:2711 Rx 1 0x132 s 6 E3 00 ED F8 29 CB 
22:20:10:2736 Rx 1 0x205 s 5 00 00 00 00 00 
22:20:10:2937 Rx 1 0x205 s 5 00 00 00 00 00 
22:20:10:3091 Rx 1 0x5FE s 8 00 00 00 00 00 00 01 5E 
22:20:10:3110 Rx 1 0x121 s 6 50 FF E7 FF 3E FC 
22:20:10:3111 Rx 1 0x132 s 6 E3 00 ED F8 2C CB 
22:20:10:3139 Rx 1 0x205 s 5 00 00 00 00 00 
22:20:10:3163 Rx 1 0x205 s 5 00 00 00 00 00 
22:20:10:3341 Rx 1 0x5FD s 8 00 00 00 00 00 00 00 00 
22:20:10:3510 Rx 1 0x121 s 6 51 FF E7 FF 3D FC 
22:20:10:3512 Rx 1 0x132 s 6 E3 00 ED F8 2F CB 
22:20:10:3545 Rx 1 0x205 s 5 00 00 00 00 00 
22:20:10:3665 Rx 1 0x5FE s 8 00 00 00 00 00 00 01 5E 
22:20:10:3749 Rx 1 0x205 s 5 00 00 00 00 00 
22:20:10:3910 Rx 1 0x121 s 6 51 FF E6 FF 3E FC 
22:20:10:3912 Rx 1 0x132 s 6 E2 00 ED F8 33 CB 
22:20:10:3943 Rx 1 0x205 s 5 00 00 00 00 00 
22:20:10:3954 Rx 1 0x5FE s 8 00 00 00 00 00 00 01 5E 
22:20:10:4156 Rx 1 0x205 s 5 00 00 00 00 00 
22:20:10:4168 Rx 1 0x625 s 8 00 00 00 00 00 00 00 00 
22:20:10:4222 Rx 1 0x205 s 5 00 00 00 00 00 
22:20:10:4225 Rx 1 0x205 s 5 00 00 00 00 00 
22:20:10:4310 Rx 1 0x121 s 6 50 FF E6 FF 3C FC 
22:20:10:4312 Rx 1 0x132 s 6 E2 00 ED F8 36 CB 
22:20:10:4314 Rx 1 0x175 s 8 00 00 00 00 00 00 00 00 
22:20:10:4359 Rx 1 0x5FE s 8 00 00 00 00 00 00 01 5E 
22:20:10:4562 Rx 1 0x5F1 s 8 00 00 00 00 93 93 01 01 
22:20:10:4671 Rx 1 0x5F2 s 8 03 F2 00 00 FF FF FF FF 
22:20:10:4710 Rx 1 0x121 s 6 51 FF E6 FF 3D FC 
22:20:10:4712 Rx 1 0x132 s 6 E2 00 ED F8 39 CB 
22:20:10:4764 Rx 1 0x205 s 5 00 00 00 00 00 
22:20:10:4965 Rx 1 0x205 s 5 00 00 00 00 00 
22:20:10:5092 Rx 1 0x5FE s 8 00 00 00 00 00 00 01 5E 
22:20:10:5109 Rx 1 0x121 s 6 51 FF E6 FF 3C FC 
22:20:10:5111 Rx 1 0x132 s 6 E2 00 ED F8 3D CB 
22:20:10:5166 Rx 1 0x205 s 5 00 00 00 00 00 
22:20:10:5172 Rx 1 0x205 s 5 00 00 00 00 00 
22:20:10:5366 Rx 1 0x5FD s 8 00 00 00 00 00 00 00 00 
22:20:10:5510 Rx 1 0x121 s 6 51 FF E8 FF 3D FC 
22:20:10:5512 Rx 1 0x132 s 6 E2 00 ED F8 40 CB 
22:20:10:5566 Rx 1 0x205 s 5 00 00 00 00 00 
22:20:10:5677 Rx 1 0x5FE s 8 00 00 00 00 00 00 01 5E 
22:20:10:5766 Rx 1 0x205 s 5 00 00 00 00 00 
22:20:10:5909 Rx 1 0x121 s 6 51 FF E7 FF 3C FC 
22:20:10:5911 Rx 1 0x132 s 6 E2 00 ED F8 43 CB 
22:20:10:5944 Rx 1 0x205 s 5 00 00 00 00 00 
22:20:10:5970 Rx 1 0x5FE s 8 00 00 00 00 00 00 01 5E 
22:20:10:6172 Rx 1 0x205 s 5 00 00 00 00 00 
22:20:10:6180 Rx 1 0x625 s 8 00 00 00 00 00 00 00 00 
22:20:10:6184 Rx 1 0x205 s 5 00 00 00 00 00 
22:20:10:6223 Rx 1 0x205 s 5 00 00 00 00 00 
22:20:10:6226 Rx 1 0x5FE s 8 00 00 00 00 00 00 01 5E 
22:20:10:6310 Rx 1 0x121 s 6 50 FF E7 FF 3D FC 
22:20:10:6312 Rx 1 0x132 s 6 E2 00 ED F8 47 CB 
22:20:10:6314 Rx 1 0x175 s 8 00 00 00 00 00 00 00 00 
22:20:10:6377 Rx 1 0x5FF s 8 02 BC FF F6 00 00 FF A6 
22:20:10:6579 Rx 1 0x5F1 s 8 00 00 00 00 93 93 01 01 
22:20:10:6686 Rx 1 0x5F2 s 8 03 F2 00 00 FF FF FF FF 
22:20:10:6709 Rx 1 0x121 s 6 51 FF E7 FF 3F FC 
22:20:10:6712 Rx 1 0x132 s 6 E2 00 ED F8 4A CB 
22:20:10:6781 Rx 1 0x205 s 5 00 00 00 00 00 
22:20:10:6982 Rx 1 0x205 s 5 00 00 00 00 00 
22:20:10:7094 Rx 1 0x5FE s 8 00 00 00 00 00 00 01 5E 
22:20:10:7109 Rx 1 0x121 s 6 52 FF E6 FF 3E FC 
22:20:10:7111 Rx 1 0x132 s 6 E2 00 ED F8 4D CB 
22:20:10:7188 Rx 1 0x205 s 5 00 00 00 00 00 
22:20:10:7190 Rx 1 0x205 s 5 00 00 00 00 00 
22:20:10:7393 Rx 1 0x5FD s 8 00 00 00 00 00 00 00 00 
22:20:10:7510 Rx 1 0x121 s 6 52 FF E6 FF 3C FC 
22:20:10:7512 Rx 1 0x132 s 6 E2 00 ED F8 51 CB 
22:20:10:7594 Rx 1 0x205 s 5 00 00 00 00 00 
22:20:10:7694 Rx 1 0x5FE s 8 00 00 00 00 00 00 01 5E 
22:20:10:7795 Rx 1 0x205 s 5 00 00 00 00 00 
22:20:10:7910 Rx 1 0x121 s 6 51 FF E7 FF 3F FC 
22:20:10:7912 Rx 1 0x132 s 6 E2 00 EE F8 54 CB 
22:20:10:7946 Rx 1 0x205 s 5 00 00 00 00 00 
22:20:10:7997 Rx 1 0x5FE s 8 00 00 00 00 00 00 01 5E 
22:20:10:8194 Rx 1 0x205 s 5 00 00 00 00 00 
22:20:10:8200 Rx 1 0x625 s 8 00 00 00 00 00 00 00 00 
22:20:10:8224 Rx 1 0x205 s 5 00 00 00 00 00 
22:20:10:8226 Rx 1 0x5FE s 8 00 00 00 00 00 00 01 5E 
22:20:10:8310 Rx 1 0x121 s 6 50 FF E7 FF 3D FC 
22:20:10:8312 Rx 1 0x132 s 6 E2 00 EE F8 57 CB 
22:20:10:8314 Rx 1 0x175 s 8 00 00 00 00 00 00 00 00 
22:20:10:8402 Rx 1 0x205 s 5 00 00 00 00 00 
22:20:10:8604 Rx 1 0x5F1 s 8 00 00 00 00 93 93 01 01 
22:20:10:8699 Rx 1 0x5F2 s 8 03 F2 00 00 FF FF FF FF 
22:20:10:8709 Rx 1 0x121 s 6 52 FF E6 FF 3E FC 
22:20:10:8711 Rx 1 0x132 s 6 E2 00 EE F8 5B CB 
22:20:10:8807 Rx 1 0x205 s 5 00 00 00 00 00 
22:20:10:9007 Rx 1 0x205 s 5 00 00 00 00 00 
22:20:10:9096 Rx 1 0x5FE s 8 00 00 00 00 00 00 01 5E 
22:20:10:9109 Rx 1 0x121 s 6 4F FF E6 FF 3E FC 
22:20:10:9111 Rx 1 0x132 s 6 E2 00 EE F8 5E CB 
22:20:10:9201 Rx 1 0x205 s 5 00 00 00 00 00 
22:20:10:9208 Rx 1 0x205 s 5 00 00 00 00 00 
22:20:10:9409 Rx 1 0x5FD s 8 00 00 00 00 00 00 00 00 
22:20:10:9510 Rx 1 0x121 s 6 52 FF E7 FF 3E FC 
22:20:10:9512 Rx 1 0x132 s 6 E2 00 EE F8 61 CB 
22:20:10:9610 Rx 1 0x5FE s 8 00 00 00 00 00 00 01 5E 
22:20:10:9703 Rx 1 0x205 s 5 00 00 00 00 00 
22:20:10:9811 Rx 1 0x205 s 5 00 00 00 00 00 
22:20:10:9910 Rx 1 0x121 s 6 50 FF E5 FF 3D FC 
22:20:10:9911 Rx 1 0x132 s 6 E2 00 EE F8 65 CB 
22:20:10:9949 Rx 1 0x205 s 5 00 00 00 00 00 
22:20:11:0027 Rx 1 0x5FE s 8 00 00 00 00 00 00 01 5E 
22:20:11:0207 Rx 1 0x205 s 5 00 00 00 00 00 
22:20:11:0225 Rx 1 0x625 s 8 00 00 00 00 00 00 00 00 
22:20:11:0227 Rx 1 0x205 s 5 00 00 00 00 00 
22:20:11:0230 Rx 1 0x5FE s 8 00 00 00 00 00 00 01 5E 
22:20:11:0310 Rx 1 0x121 s 6 51 FF E6 FF 3C FC 
22:20:11:0312 Rx 1 0x132 s 6 E2 00 EE F8 68 CB 
22:20:11:0315 Rx 1 0x175 s 8 00 00 00 00 00 00 00 00 
22:20:11:0430 Rx 1 0x5F1 s 8 00 00 00 00 93 93 01 01 
22:20:11:0632 Rx 1 0x5F2 s 8 03 F2 00 00 FF FF FF FF 
22:20:11:0710 Rx 1 0x121 s 6 50 FF E7 FF 3E FC 
22:20:11:0711 Rx 1 0x205 s 5 00 00 00 00 00 
22:20:11:0713 Rx 1 0x132 s 6 E2 00 EE F8 6B CB 
22:20:11:0835 Rx 1 0x205 s 5 00 00 00 00 00 
22:20:11:1036 Rx 1 0x205 s 5 00 00 00 00 00 
22:20:11:1096 Rx 1 0x5FE s 8 00 00 00 00 00 00 01 5E 
22:20:11:1109 Rx 1 0x121 s 6 51 FF E7 FF 3D FC 
22:20:11:1111 Rx 1 0x132 s 6 E2 00 EE F8 6E CB 
22:20:11:1186 Rx 1 0x205 s 5 00 00 00 00 00 
22:20:11:1215 Rx 1 0x205 s 5 00 00 00 00 00 
22:20:11:1236 Rx 1 0x5FD s 8 00 00 00 00 00 00 00 00 
22:20:11:1436 Rx 1 0x5FF s 8 02 BC FF F6 00 00 FF A6 
22:20:11:1510 Rx 1 0x121 s 6 52 FF E6 FF 3C FC 
22:20:11:1511 Rx 1 0x132 s 6 E2 00 EE F8 72 CB 
22:20:11:1638 Rx 1 0x5FE s 8 00 00 00 00 00 00 01 5E 
22:20:11:1721 Rx 1 0x205 s 5 00 00 00 00 00 
22:20:11:1837 Rx 1 0x205 s 5 00 00 00 00 00 
22:20:11:1909 Rx 1 0x121 s 6 50 FF E6 FF 3D FC 
22:20:11:1912 Rx 1 0x132 s 6 E2 00 EE F8 75 CB 
22:20:11:1950 Rx 1 0x205 s 5 00 00 00 00 00 
22:20:11:2037 Rx 1 0x5FE s 8 00 00 00 00 00 00 01 5E 
22:20:11:2223 Rx 1 0x205 s 5 00 00 00 00 00 
22:20:11:2228 Rx 1 0x625 s 8 00 00 00 00 00 00 00 00 
22:20:11:2230 Rx 1 0x205 s 5 00 00 00 00 00 
22:20:11:2238 Rx 1 0x5FE s 8 00 00 00 00 00 00 01 5E 
22:20:11:2309 Rx 1 0x121 s 6 50 FF E7 FF 3B FC 
22:20:11:2312 Rx 1 0x132 s 6 E2 00 EE F8 78 CB 
22:20:11:2314 Rx 1 0x175 s 8 00 00 00 00 00 00 00 00 
22:20:11:2440 Rx 1 0x5F1 s 8 00 00 00 00 93 93 01 01 
22:20:11:2641 Rx 1 0x5F2 s 8 03 F2 00 00 FF FF FF FF 
22:20:11:2709 Rx 1 0x121 s 6 51 FF E6 FF 3C FC 
22:20:11:2711 Rx 1 0x132 s 6 E2 00 EE F8 7C CB 
22:20:11:2727 Rx 1 0x205 s 5 00 00 00 00 00 
22:20:11:2845 Rx 1 0x205 s 5 00 00 00 00 00 
22:20:11:3046 Rx 1 0x205 s 5 00 00 00 00 00 
22:20:11:3101 Rx 1 0x5FE s 8 00 00 00 00 00 00 01 5E 
22:20:11:3109 Rx 1 0x121 s 6 4F FF E7 FF 3E FC 
22:20:11:3112 Rx 1 0x132 s 6 E2 00 EE F8 7F CB 
22:20:11:3230 Rx 1 0x205 s 5 00 00 00 00 00 
22:20:11:3249 Rx 1 0x205 s 5 00 00 00 00 00 
22:20:11:3452 Rx 1 0x5FD s 8 00 00 00 00 00 00 00 00 
22:20:11:3510 Rx 1 0x121 s 6 51 FF E7 FF 3F FC 
22:20:11:3512 Rx 1 0x132 s 6 E2 00 EE F8 83 CB 
22:20:11:3653 Rx 1 0x5FE s 8 00 00 00 00 00 00 01 5E 
22:20:11:3736 Rx 1 0x205 s 5 00 00 00 00 00 
22:20:11:3853 Rx 1 0x205 s 5 00 00 00 00 00 
22:20:11:3909 Rx 1 0x121 s 6 51 FF E6 FF 3D FC 
22:20:11:3911 Rx 1 0x132 s 6 E2 00 EE F8 86 CB 
22:20:11:3950 Rx 1 0x205 s 5 00 00 00 00 00 
22:20:11:4053 Rx 1 0x5FE s 8 00 00 00 00 00 00 01 5E 
22:20:11:4230 Rx 1 0x205 s 5 00 00 00 00 00 
22:20:11:4233 Rx 1 0x625 s 8 00 00 00 00 00 00 00 00 
22:20:11:4235 Rx 1 0x205 s 5 00 00 00 00 00 
22:20:11:4253 Rx 1 0x5F1 s 8 00 00 00 00 93 93 01 01 
22:20:11:4310 Rx 1 0x121 s 6 51 FF E6 FF 3C FC 
22:20:11:4311 Rx 1 0x132 s 6 E2 00 EE F8 89 CB 
22:20:11:4314 Rx 1 0x175 s 8 00 00 00 00 00 00 00 00 
22:20:11:4454 Rx 1 0x5F2 s 8 03 F2 00 00 FF FF FF FF 
22:20:11:4655 Rx 1 0x5FE s 8 00 00 00 00 00 00 01 5E 
22:20:11:4710 Rx 1 0x121 s 6 51 FF E8 FF 3D FC 
22:20:11:4711 Rx 1 0x132 s 6 E2 00 EE F8 8D CB 
22:20:11:4740 Rx 1 0x205 s 5 00 00 00 00 00 
22:20:11:4853 Rx 1 0x205 s 5 00 00 00 00 00 
22:20:11:5053 Rx 1 0x205 s 5 00 00 00 00 00 
22:20:11:5103 Rx 1 0x5FE s 8 00 00 00 00 00 00 01 5E 
22:20:11:5109 Rx 1 0x121 s 6 52 FF E5 FF 3D FC 
22:20:11:5111 Rx 1 0x132 s 6 E2 00 EE F8 90 CB 
22:20:11:5242 Rx 1 0x205 s 5 00 00 00 00 00 
22:20:11:5256 Rx 1 0x205 s 5 00 00 00 00 00 
22:20:11:5458 Rx 1 0x5FD s 8 00 00 00 00 00 00 00 00 
22:20:11:5510 Rx 1 0x121 s 6 52 FF E5 FF 3E FC 
22:20:11:5512 Rx 1 0x132 s 6 E2 00 EE F8 93 CB 
22:20:11:5660 Rx 1 0x5FE s 8 00 00 00 00 00 00 01 5E 
22:20:11:5744 Rx 1 0x205 s 5 00 00 00 00 00 
22:20:11:5859 Rx 1 0x205 s 5 00 00 00 00 00 
22:20:11:5910 Rx 1 0x121 s 6 50 FF E7 FF 3E FC 
22:20:11:5913 Rx 1 0x132 s 6 E2 00 EE F8 96 CB 
22:20:11:5953 Rx 1 0x205 s 5 00 00 00 00 00 
22:20:11:6060 Rx 1 0x5FE s 8 00 00 00 00 00 00 01 5E 
22:20:11:6191 Rx 1 0x205 s 5 00 00 00 00 00 
22:20:11:6231 Rx 1 0x625 s 8 00 00 00 00 00 00 00 00 
22:20:11:6236 Rx 1 0x205 s 5 00 00 00 00 00 
22:20:11:6280 Rx 1 0x5FF s 8 02 BC FF F6 00 00 FF A6 
22:20:11:6290 Rx 1 0x5F1 s 8 00 00 00 00 93 93 01 01 
22:20:11:6310 Rx 1 0x121 s 6 51 FF E6 FF 3D FC 
22:20:11:6317 Rx 1 0x132 s 6 E2 00 EE F8 9A CB 
22:20:11:6319 Rx 1 0x175 s 8 00 00 00 00 00 00 00 00 
22:20:11:6462 Rx 1 0x5F2 s 8 03 F2 00 00 FF FF FF FF 
22:20:11:6664 Rx 1 0x5FE s 8 00 00 00 00 00 00 01 5E 
22:20:11:6710 Rx 1 0x121 s 6 51 FF E7 FF 3C FC 
22:20:11:6718 Rx 1 0x132 s 6 E2 00 EE F8 9D CB 
22:20:11:6748 Rx 1 0x205 s 5 00 00 00 00 00 
22:20:11:6867 Rx 1 0x205 s 5 00 00 00 00 00 
22:20:11:7069 Rx 1 0x205 s 5 00 00 00 00 00 
22:20:11:7107 Rx 1 0x5FE s 8 00 00 00 00 00 00 01 5E 
22:20:11:7117 Rx 1 0x121 s 6 4F FF E7 FF 3D FC 
22:20:11:7121 Rx 1 0x132 s 6 E2 00 EE F8 A1 CB 
22:20:11:7253 Rx 1 0x205 s 5 00 00 00 00 00 
22:20:11:7273 Rx 1 0x205 s 5 00 00 00 00 00 
22:20:11:7474 Rx 1 0x5FD s 8 00 00 00 00 00 00 00 00 
22:20:11:7479 Rx 1 0x5FE s 8 00 00 00 00 00 00 01 5E 
22:20:11:7482 Rx 1 0x205 s 5 00 00 00 00 00 
22:20:11:7514 Rx 1 0x121 s 6 50 FF E6 FF 3E FC 
22:20:11:7522 Rx 1 0x132 s 6 E3 00 EE F8 A4 CB 
22:20:11:7676 Rx 1 0x205 s 5 00 00 00 00 00 
22:20:11:7758 Rx 1 0x200 s 0 
22:20:11:7878 Rx 1 0x201 s 8 00 00 0F 00 14 14 00 00 
22:20:11:7912 Rx 1 0x121 s 6 52 FF E7 FF 3D FC 
22:20:11:7937 Rx 1 0x132 s 6 E3 00 EE F8 A7 CB 
22:20:11:7955 Rx 1 0x205 s 5 00 00 00 00 00 
22:20:11:8083 Rx 1 0x5FE s 8 00 00 00 00 00 00 01 5E 
22:20:11:8231 Rx 1 0x205 s 5 00 00 00 00 00 
22:20:11:8236 Rx 1 0x625 s 8 00 00 00 00 00 00 00 00 
22:20:11:8258 Rx 1 0x205 s 5 00 00 00 00 00 
22:20:11:8286 Rx 1 0x5F1 s 8 00 00 00 00 93 93 01 01 
22:20:11:8311 Rx 1 0x121 s 6 52 FF E6 FF 3C FC 
22:20:11:8317 Rx 1 0x132 s 6 E2 00 EE F8 AB CB 
22:20:11:8320 Rx 1 0x175 s 8 00 00 00 00 00 00 00 00 
22:20:11:8486 Rx 1 0x5F2 s 8 03 F2 00 00 FF FF FF FF 
22:20:11:8701 Rx 1 0x5FE s 8 00 00 00 00 00 00 01 5E 
22:20:11:8714 Rx 1 0x121 s 6 52 FF E4 FF 3B FC 
22:20:11:8716 Rx 1 0x132 s 6 E2 00 EE F8 AE CB 
22:20:11:8762 Rx 1 0x205 s 5 00 00 00 00 00 
22:20:11:8904 Rx 1 0x205 s 5 00 00 00 00 00 
22:20:11:9102 Rx 1 0x205 s 5 00 00 00 00 00 
22:20:11:9114 Rx 1 0x5FE s 8 00 00 00 00 00 00 01 5E 
22:20:11:9118 Rx 1 0x121 s 6 51 FF E5 FF 3F FC 
22:20:11:9120 Rx 1 0x132 s 6 E3 00 EE F8 B1 CB 
22:20:11:9265 Rx 1 0x205 s 5 00 00 00 00 00 
22:20:11:9305 Rx 1 0x205 s 5 00 00 00 00 00 
22:20:11:9508 Rx 1 0x5FD s 8 00 00 00 00 00 00 00 00 
22:20:11:9514 Rx 1 0x121 s 6 50 FF E7 FF 3F FC 
22:20:11:9517 Rx 1 0x132 s 6 E3 00 EE F8 B5 CB 
22:20:11:9710 Rx 1 0x5FE s 8 00 00 00 00 00 00 01 5E 
22:20:11:9769 Rx 1 0x205 s 5 00 00 00 00 00 
22:20:11:9910 Rx 1 0x121 s 6 51 FF E7 FF 3D FC 
22:20:11:9916 Rx 1 0x132 s 6 E2 00 EE F8 B8 CB 
22:20:11:9919 Rx 1 0x205 s 5 00 00 00 00 00 
22:20:11:9956 Rx 1 0x205 s 5 00 00 00 00 00 
22:20:12:0115 Rx 1 0x5FE s 8 00 00 00 00 00 00 01 5E 
22:20:12:0234 Rx 1 0x205 s 5 00 00 00 00 00 
22:20:12:0238 Rx 1 0x625 s 8 00 00 00 00 00 00 00 00 
22:20:12:0272 Rx 1 0x205 s 5 00 00 00 00 00 
22:20:12:0311 Rx 1 0x121 s 6 51 FF E8 FF 3C FC 
22:20:12:0314 Rx 1 0x132 s 6 E2 00 EE F8 BC CB 
22:20:12:0315 Rx 1 0x175 s 8 00 00 00 00 00 00 00 00 
22:20:12:0319 Rx 1 0x5F1 s 8 00 00 00 00 93 93 01 01 
22:20:12:0519 Rx 1 0x5F2 s 8 03 F2 00 00 FF FF FF FF 
22:20:12:0711 Rx 1 0x121 s 6 51 FF E7 FF 3D FC 
22:20:12:0714 Rx 1 0x132 s 6 E2 00 EE F8 BF CB 
22:20:12:0719 Rx 1 0x5FE s 8 00 00 00 00 00 00 01 5E 
22:20:12:0775 Rx 1 0x205 s 5 00 00 00 00 00 
22:20:12:0921 Rx 1 0x205 s 5 00 00 00 00 00 
22:20:12:1113 Rx 1 0x121 s 6 51 FF E7 FF 3E FC 
22:20:12:1118 Rx 1 0x205 s 5 00 00 00 00 00 
22:20:12:1123 Rx 1 0x132 s 6 E2 00 EE F8 C3 CB 
22:20:12:1127 Rx 1 0x5FE s 8 00 00 00 00 00 00 01 5E 
22:20:12:1194 Rx 1 0x205 s 5 00 00 00 00 00 
22:20:12:1279 Rx 1 0x5FD s 8 00 00 00 00 00 00 00 00 
22:20:12:1322 Rx 1 0x205 s 5 00 00 00 00 00 
22:20:12:1510 Rx 1 0x121 s 6 51 FF E5 FF 3E FC 
22:20:12:1511 Rx 1 0x132 s 6 E2 00 EF F8 C6 CB 
22:20:12:1526 Rx 1 0x5FF s 8 02 BC FF F6 00 00 FF A6 
22:20:12:1729 Rx 1 0x5FE s 8 00 00 00 00 00 00 01 5E 
22:20:12:1779 Rx 1 0x205 s 5 00 00 00 00 00 
22:20:12:1911 Rx 1 0x121 s 6 50 FF E6 FF 3D FC 
22:20:12:1915 Rx 1 0x132 s 6 E2 00 EF F8 CA CB 
22:20:12:1931 Rx 1 0x205 s 5 00 00 00 00 00 
22:20:12:1958 Rx 1 0x205 s 5 00 00 00 00 00 
22:20:12:2135 Rx 1 0x5FE s 8 00 00 00 00 00 00 01 5E 
22:20:12:2233 Rx 1 0x205 s 5 00 00 00 00 00 
22:20:12:2253 Rx 1 0x625 s 8 00 00 00 00 00 00 00 00 
22:20:12:2281 Rx 1 0x205 s 5 00 00 00 00 00 
22:20:12:2311 Rx 1 0x121 s 6 50 FF E5 FF 3C FC 
22:20:12:2323 Rx 1 0x132 s 6 E2 00 EE F8 CD CB 
22:20:12:2325 Rx 1 0x175 s 8 00 00 00 00 00 00 00 00 
22:20:12:2361 Rx 1 0x5F1 s 8 00 00 00 00 93 93 01 01 
22:20:12:2534 Rx 1 0x5F2 s 8 03 F2 00 00 FF FF FF FF 
22:20:12:2710 Rx 1 0x121 s 6 50 FF E7 FF 3D FC 
22:20:12:2715 Rx 1 0x132 s 6 E2 00 EE F8 D0 CB 
22:20:12:2736 Rx 1 0x5FE s 8 00 00 00 00 00 00 01 5E 
22:20:12:2785 Rx 1 0x205 s 5 00 00 00 00 00 
22:20:12:2935 Rx 1 0x205 s 5 00 00 00 00 00 
22:20:12:3109 Rx 1 0x121 s 6 4F FF E6 FF 3E FC 
22:20:12:3111 Rx 1 0x132 s 6 E2 00 EF F8 D4 CB 
22:20:12:3113 Rx 1 0x205 s 5 00 00 00 00 00 
22:20:12:3137 Rx 1 0x5FE s 8 00 00 00 00 00 00 01 5E 
22:20:12:3285 Rx 1 0x205 s 5 00 00 00 00 00 
22:20:12:3337 Rx 1 0x5FD s 8 00 00 00 00 00 00 00 00 
22:20:12:3510 Rx 1 0x121 s 6 52 FF E6 FF 3E FC 
22:20:12:3514 Rx 1 0x132 s 6 E2 00 EE F8 D7 CB 
22:20:12:3537 Rx 1 0x205 s 5 00 00 00 00 00 
22:20:12:3737 Rx 1 0x5FE s 8 00 00 00 00 00 00 01 5E 
22:20:12:3788 Rx 1 0x205 s 5 00 00 00 00 00 
22:20:12:3909 Rx 1 0x121 s 6 50 FF E5 FF 3D FC 
22:20:12:3911 Rx 1 0x132 s 6 E2 00 EE F8 DA CB 
22:20:12:3935 Rx 1 0x205 s 5 00 00 00 00 00 
22:20:12:3957 Rx 1 0x205 s 5 00 00 00 00 00 
22:20:12:4138 Rx 1 0x5FE s 8 00 00 00 00 00 00 01 5E 
22:20:12:4233 Rx 1 0x205 s 5 00 00 00 00 00 
22:20:12:4297 Rx 1 0x625 s 8 00 00 00 00 00 00 00 00 
22:20:12:4298 Rx 1 0x205 s 5 00 00 00 00 00 
22:20:12:4309 Rx 1 0x121 s 6 51 FF E6 FF 3C FC 
22:20:12:4313 Rx 1 0x132 s 6 E2 00 EE F8 DE CB 
22:20:12:4314 Rx 1 0x175 s 8 00 00 00 00 00 00 00 00 
22:20:12:4339 Rx 1 0x5F1 s 8 00 00 00 00 93 93 01 01 
22:20:12:4540 Rx 1 0x5F2 s 8 03 F2 00 00 FF FF FF FF 
22:20:12:4710 Rx 1 0x121 s 6 4F FF E6 FF 3B FC 
22:20:12:4712 Rx 1 0x132 s 6 E2 00 EF F8 E1 CB 
22:20:12:4740 Rx 1 0x5FE s 8 00 00 00 00 00 00 01 5E 
22:20:12:4794 Rx 1 0x205 s 5 00 00 00 00 00 
22:20:12:4939 Rx 1 0x205 s 5 00 00 00 00 00 
22:20:12:5109 Rx 1 0x121 s 6 51 FF E6 FF 3E FC 
22:20:12:5111 Rx 1 0x205 s 5 00 00 00 00 00 
22:20:12:5113 Rx 1 0x132 s 6 E2 00 EF F8 E5 CB 
22:20:12:5142 Rx 1 0x5FE s 8 00 00 00 00 00 00 01 5E 
22:20:12:5296 Rx 1 0x205 s 5 00 00 00 00 00 
22:20:12:5343 Rx 1 0x5FD s 8 00 00 00 00 00 00 00 00 
22:20:12:5512 Rx 1 0x121 s 6 50 FF E8 FF 3D FC 
22:20:12:5514 Rx 1 0x132 s 6 E2 00 EF F8 E8 CB 
22:20:12:5543 Rx 1 0x205 s 5 00 00 00 00 00 
22:20:12:5744 Rx 1 0x5FE s 8 00 00 00 00 00 00 01 5E 
22:20:12:5798 Rx 1 0x205 s 5 00 00 00 00 00 
22:20:12:5909 Rx 1 0x121 s 6 51 FF E5 FF 3C FC 
22:20:12:5911 Rx 1 0x132 s 6 E2 00 EF F8 EB CB 
22:20:12:5946 Rx 1 0x205 s 5 00 00 00 00 00 
22:20:12:5958 Rx 1 0x205 s 5 00 00 00 00 00 
22:20:12:6150 Rx 1 0x5FE s 8 00 00 00 00 00 00 01 5E 
22:20:12:6194 Rx 1 0x205 s 5 00 00 00 00 00 
22:20:12:6234 Rx 1 0x625 s 8 00 00 00 00 00 00 00 00 
22:20:12:6236 Rx 1 0x205 s 5 00 00 00 00 00 
22:20:12:6303 Rx 1 0x5FF s 8 02 BC FF F6 00 00 FF A6 
22:20:12:6309 Rx 1 0x121 s 6 51 FF E6 FF 3B FC 
22:20:12:6311 Rx 1 0x132 s 6 E2 00 EF F8 EF CB 
22:20:12:6314 Rx 1 0x175 s 8 00 00 00 00 00 00 00 00 
22:20:12:6352 Rx 1 0x5F1 s 8 00 00 00 00 93 93 01 01 
22:20:12:6555 Rx 1 0x5F2 s 8 03 F2 00 00 FF FF FF FF 
22:20:12:6709 Rx 1 0x121 s 6 51 FF E6 FF 3D FC 
22:20:12:6711 Rx 1 0x132 s 6 E2 00 EF F8 F2 CB 
22:20:12:6757 Rx 1 0x5FE s 8 00 00 00 00 00 00 01 5E 
22:20:12:6805 Rx 1 0x205 s 5 00 00 00 00 00 
22:20:12:6958 Rx 1 0x205 s 5 00 00 00 00 00 
22:20:12:7109 Rx 1 0x121 s 6 50 FF E5 FF 3D FC 
22:20:12:7111 Rx 1 0x132 s 6 E3 00 EF F8 F5 CB 
22:20:12:7115 Rx 1 0x205 s 5 00 00 00 00 00 
22:20:12:7159 Rx 1 0x5FE s 8 00 00 00 00 00 00 01 5E 
22:20:12:7309 Rx 1 0x205 s 5 00 00 00 00 00 
22:20:12:7369 Rx 1 0x5FD s 8 00 00 00 00 00 00 00 00 
22:20:12:7510 Rx 1 0x121 s 6 50 FF E6 FF 3E FC 
22:20:12:7511 Rx 1 0x132 s 6 E3 00 EF F8 F9 CB 
22:20:12:7570 Rx 1 0x205 s 5 00 00 00 00 00 
22:20:12:7770 Rx 1 0x5FE s 8 00 00 00 00 00 00 01 5E 
22:20:12:7810 Rx 1 0x205 s 5 00 00 00 00 00 
22:20:12:7909 Rx 1 0x121 s 6 50 FF E5 FF 3C FC 
22:20:12:7911 Rx 1 0x132 s 6 E3 00 EF F8 FC CB 
22:20:12:7959 Rx 1 0x205 s 5 00 00 00 00 00 
22:20:12:7973 Rx 1 0x205 s 5 00 00 00 00 00 
22:20:12:8176 Rx 1 0x5FE s 8 00 00 00 00 00 00 01 5E 
22:20:12:8236 Rx 1 0x625 s 8 00 00 00 00 00 00 00 00 
22:20:12:8238 Rx 1 0x205 s 5 00 00 00 00 00 
22:20:12:8309 Rx 1 0x121 s 6 4F FF E7 FF 3C FC 
22:20:12:8311 Rx 1 0x132 s 6 E3 00 EF F8 00 CC 
22:20:12:8314 Rx 1 0x205 s 5 00 00 00 00 00 
22:20:12:8316 Rx 1 0x175 s 8 00 00 00 00 00 00 00 00 
22:20:12:8380 Rx 1 0x5F1 s 8 00 00 00 00 93 93 01 01 
22:20:12:8581 Rx 1 0x5F2 s 8 03 F2 00 00 FF FF FF FF 
22:20:12:8709 Rx 1 0x121 s 6 50 FF E7 FF 3D FC 
22:20:12:8711 Rx 1 0x132 s 6 E3 00 EF F8 03 CC 
22:20:12:8782 Rx 1 0x5FE s 8 00 00 00 00 00 00 01 5E 
22:20:12:8817 Rx 1 0x205 s 5 00 00 00 00 00 
22:20:12:8983 Rx 1 0x205 s 5 00 00 00 00 00 
22:20:12:9109 Rx 1 0x121 s 6 51 FF E7 FF 3F FC 
22:20:12:9111 Rx 1 0x132 s 6 E3 00 EF F8 06 CC 
22:20:12:9116 Rx 1 0x205 s 5 00 00 00 00 00 
22:20:12:9185 Rx 1 0x5FE s 8 00 00 00 00 00 00 01 5E 
22:20:12:9320 Rx 1 0x205 s 5 00 00 00 00 00 
22:20:12:9384 Rx 1 0x5FD s 8 00 00 00 00 00 00 00 00 
22:20:12:9510 Rx 1 0x121 s 6 50 FF E6 FF 3B FC 
22:20:12:9511 Rx 1 0x132 s 6 E3 00 EF F8 0A CC 
22:20:12:9584 Rx 1 0x205 s 5 00 00 00 00 00 
22:20:12:9786 Rx 1 0x5FE s 8 00 00 00 00 00 00 01 5E 
22:20:12:9821 Rx 1 0x205 s 5 00 00 00 00 00 
22:20:12:9910 Rx 1 0x121 s 6 51 FF E7 FF 3D FC 
22:20:12:9911 Rx 1 0x132 s 6 E3 00 EF F8 0D CC 
22:20:12:9959 Rx 1 0x205 s 5 00 00 00 00 00 
22:20:12:9989 Rx 1 0x205 s 5 00 00 00 00 00 
22:20:13:0191 Rx 1 0x5FE s 8 00 00 00 00 00 00 01 5E 
22:20:13:0237 Rx 1 0x625 s 8 00 00 00 00 00 00 00 00 
22:20:13:0238 Rx 1 0x205 s 5 00 00 00 00 00 
22:20:13:0309 Rx 1 0x121 s 6 4F FF E5 FF 3D FC 
22:20:13:0311 Rx 1 0x132 s 6 E3 00 EF F8 11 CC 
22:20:13:0314 Rx 1 0x175 s 8 00 00 00 00 00 00 00 00 
22:20:13:0324 Rx 1 0x205 s 5 00 00 00 00 00 
22:20:13:0394 Rx 1 0x5F1 s 8 00 00 00 00 93 93 01 01 
22:20:13:0597 Rx 1 0x5F2 s 8 03 F2 00 00 FF FF FF FF 
22:20:13:0709 Rx 1 0x121 s 6 51 FF E7 FF 3D FC 
22:20:13:0711 Rx 1 0x132 s 6 E3 00 EF F8 14 CC 
22:20:13:0798 Rx 1 0x5FE s 8 00 00 00 00 00 00 01 5E 
22:20:13:0827 Rx 1 0x205 s 5 00 00 00 00 00 
22:20:13:0999 Rx 1 0x205 s 5 00 00 00 00 00 
22:20:13:1109 Rx 1 0x121 s 6 51 FF E5 FF 3C FC 
22:20:13:1111 Rx 1 0x132 s 6 E3 00 EF F8 17 CC 
22:20:13:1120 Rx 1 0x205 s 5 00 00 00 00 00 
22:20:13:1196 Rx 1 0x5FE s 8 00 00 00 00 00 00 01 5E 
22:20:13:1200 Rx 1 0x205 s 5 00 00 00 00 00 
22:20:13:1330 Rx 1 0x5FD s 8 00 00 00 00 00 00 00 00 
22:20:13:1400 Rx 1 0x5FF s 8 02 BC FF F6 00 00 FF A6 
22:20:13:1510 Rx 1 0x121 s 6 50 FF E7 FF 3E FC 
22:20:13:1511 Rx 1 0x132 s 6 E3 00 EF F8 1B CC 
22:20:13:1600 Rx 1 0x205 s 5 00 00 00 00 00 
22:20:13:1802 Rx 1 0x5FE s 8 00 00 00 00 00 00 01 5E 
22:20:13:1831 Rx 1 0x205 s 5 00 00 00 00 00 
22:20:13:1909 Rx 1 0x121 s 6 51 FF E6 FF 3D FC 
22:20:13:1911 Rx 1 0x132 s 6 E3 00 EF F8 1E CC 
22:20:13:1963 Rx 1 0x205 s 5 00 00 00 00 00 
22:20:13:2005 Rx 1 0x205 s 5 00 00 00 00 00 
22:20:13:2208 Rx 1 0x5FE s 8 00 00 00 00 00 00 01 5E 
22:20:13:2237 Rx 1 0x625 s 8 00 00 00 00 00 00 00 00 
22:20:13:2239 Rx 1 0x205 s 5 00 00 00 00 00 
22:20:13:2309 Rx 1 0x121 s 6 50 FF E6 FF 3F FC 
22:20:13:2311 Rx 1 0x132 s 6 E3 00 EF F8 22 CC 
22:20:13:2315 Rx 1 0x175 s 8 00 00 00 00 00 00 00 00 
22:20:13:2335 Rx 1 0x205 s 5 00 00 00 00 00 
22:20:13:2410 Rx 1 0x5F1 s 8 00 00 00 00 93 93 01 01 
22:20:13:2612 Rx 1 0x5F2 s 8 03 F2 00 00 FF FF FF FF 
22:20:13:2709 Rx 1 0x121 s 6 51 FF E6 FF 3D FC 
22:20:13:2711 Rx 1 0x132 s 6 E3 00 EF F8 25 CC 
22:20:13:2814 Rx 1 0x5FE s 8 00 00 00 00 00 00 01 5E 
22:20:13:2837 Rx 1 0x205 s 5 00 00 00 00 00 
22:20:13:3015 Rx 1 0x205 s 5 00 00 00 00 00 
22:20:13:3109 Rx 1 0x121 s 6 51 FF E7 FF 3E FC 
22:20:13:3111 Rx 1 0x132 s 6 E3 00 EF F8 28 CC 
22:20:13:3120 Rx 1 0x205 s 5 00 00 00 00 00 
22:20:13:3220 Rx 1 0x5FE s 8 00 00 00 00 00 00 01 5E 
22:20:13:3339 Rx 1 0x205 s 5 00 00 00 00 00 
22:20:13:3420 Rx 1 0x5FD s 8 00 00 00 00 00 00 00 00 
22:20:13:3509 Rx 1 0x121 s 6 52 FF E7 FF 3E FC 
22:20:13:3511 Rx 1 0x132 s 6 E3 00 EF F8 2C CC 
22:20:13:3622 Rx 1 0x205 s 5 00 00 00 00 00 
22:20:13:3823 Rx 1 0x5FE s 8 00 00 00 00 00 00 01 5E 
22:20:13:3840 Rx 1 0x205 s 5 00 00 00 00 00 
22:20:13:3909 Rx 1 0x121 s 6 4F FF E8 FF 3C FC 
22:20:13:3911 Rx 1 0x132 s 6 E3 00 EF F8 2F CC 
22:20:13:3962 Rx 1 0x205 s 5 00 00 00 00 00 
22:20:13:4033 Rx 1 0x205 s 5 00 00 00 00 00 
22:20:13:4233 Rx 1 0x5FE s 8 00 00 00 00 00 00 01 5E 
22:20:13:4239 Rx 1 0x625 s 8 00 00 00 00 00 00 00 00 
22:20:13:4241 Rx 1 0x205 s 5 00 00 00 00 00 
22:20:13:4309 Rx 1 0x121 s 6 51 FF E8 FF 3D FC 
22:20:13:4311 Rx 1 0x132 s 6 E3 00 EF F8 33 CC 
22:20:13:4314 Rx 1 0x175 s 8 00 00 00 00 00 00 00 00 
22:20:13:4344 Rx 1 0x205 s 5 00 00 00 00 00 
22:20:13:4435 Rx 1 0x5F1 s 8 00 00 00 00 93 93 01 01 
22:20:13:4637 Rx 1 0x5F2 s 8 03 F2 00 00 FF FF FF FF 
22:20:13:4710 Rx 1 0x121 s 6 51 FF E5 FF 3F FC 
22:20:13:4713 Rx 1 0x132 s 6 E3 00 EF F8 36 CC 
22:20:13:4839 Rx 1 0x5FE s 8 00 00 00 00 00 00 01 5E 
22:20:13:4845 Rx 1 0x205 s 5 00 00 00 00 00 
22:20:13:5041 Rx 1 0x205 s 5 00 00 00 00 00 
22:20:13:5109 Rx 1 0x121 s 6 51 FF E6 FF 3D FC 
22:20:13:5111 Rx 1 0x132 s 6 E4 00 EF F8 39 CC 
22:20:13:5123 Rx 1 0x205 s 5 00 00 00 00 00 
22:20:13:5239 Rx 1 0x5FE s 8 00 00 00 00 00 00 01 5E 
22:20:13:5347 Rx 1 0x205 s 5 00 00 00 00 00 
22:20:13:5440 Rx 1 0x5FD s 8 00 00 00 00 00 00 00 00 
22:20:13:5510 Rx 1 0x121 s 6 51 FF E5 FF 3D FC 
22:20:13:5512 Rx 1 0x132 s 6 E4 00 EF F8 3D CC 
22:20:13:5640 Rx 1 0x205 s 5 00 00 00 00 00 
22:20:13:5840 Rx 1 0x5FE s 8 00 00 00 00 00 00 01 5E 
22:20:13:5853 Rx 1 0x205 s 5 00 00 00 00 00 
22:20:13:5909 Rx 1 0x121 s 6 4E FF E6 FF 3B FC 
22:20:13:5911 Rx 1 0x132 s 6 E4 00 EF F8 40 CC 
22:20:13:5964 Rx 1 0x205 s 5 00 00 00 00 00 
22:20:13:6041 Rx 1 0x205 s 5 00 00 00 00 00 
22:20:13:6199 Rx 1 0x5FE s 8 00 00 00 00 00 00 01 5E 
22:20:13:6241 Rx 1 0x625 s 8 00 00 00 00 00 00 00 00 
22:20:13:6243 Rx 1 0x205 s 5 00 00 00 00 00 
22:20:13:6246 Rx 1 0x5FF s 8 02 BC FF F6 00 00 FF A6 
22:20:13:6309 Rx 1 0x121 s 6 51 FF E7 FF 3D FC 
22:20:13:6311 Rx 1 0x132 s 6 E4 00 EF F8 43 CC 
22:20:13:6314 Rx 1 0x175 s 8 00 00 00 00 00 00 00 00 
22:20:13:6357 Rx 1 0x205 s 5 00 00 00 00 00 
22:20:13:6443 Rx 1 0x5F1 s 8 00 00 00 00 93 93 01 01 
22:20:13:6644 Rx 1 0x5F2 s 8 03 F2 00 00 FF FF FF FF 
22:20:13:6710 Rx 1 0x121 s 6 50 FF E6 FF 3F FC 
22:20:13:6714 Rx 1 0x132 s 6 E4 00 EF F8 47 CC 
22:20:13:6847 Rx 1 0x5FE s 8 00 00 00 00 00 00 01 5E 
22:20:13:6859 Rx 1 0x205 s 5 00 00 00 00 00 
22:20:13:7048 Rx 1 0x205 s 5 00 00 00 00 00 
22:20:13:7109 Rx 1 0x121 s 6 51 FF E6 FF 3D FC 
22:20:13:7111 Rx 1 0x132 s 6 E4 00 EF F8 4A CC 
22:20:13:7125 Rx 1 0x205 s 5 00 00 00 00 00 
22:20:13:7247 Rx 1 0x5FE s 8 00 00 00 00 00 00 01 5E 
22:20:13:7362 Rx 1 0x205 s 5 00 00 00 00 00 
22:20:13:7447 Rx 1 0x5FD s 8 00 00 00 00 00 00 00 00 
22:20:13:7509 Rx 1 0x121 s 6 50 FF E6 FF 3C FC 
22:20:13:7511 Rx 1 0x132 s 6 E4 00 EF F8 4E CC 
22:20:13:7649 Rx 1 0x205 s 5 00 00 00 00 00 
22:20:13:7852 Rx 1 0x5FE s 8 00 00 00 00 00 00 01 5E 
22:20:13:7864 Rx 1 0x205 s 5 00 00 00 00 00 
22:20:13:7866 Rx 1 0x205 s 5 00 00 00 00 00 
22:20:13:7868 Rx 1 0x205 s 5 00 00 00 00 00 
22:20:13:7909 Rx 1 0x121 s 6 51 FF E6 FF 3D FC 
22:20:13:7911 Rx 1 0x132 s 6 E4 00 EF F8 51 CC 
22:20:13:7966 Rx 1 0x200 s 0 
22:20:13:8055 Rx 1 0x201 s 8 00 00 0F 00 14 14 00 00 
22:20:13:8246 Rx 1 0x5FE s 8 00 00 00 00 00 00 01 5E 
22:20:13:8249 Rx 1 0x625 s 8 00 00 00 00 00 00 00 00 
22:20:13:8254 Rx 1 0x205 s 5 00 00 00 00 00 
22:20:13:8309 Rx 1 0x121 s 6 52 FF E7 FF 3E FC 
22:20:13:8311 Rx 1 0x132 s 6 E4 00 EF F8 55 CC 
22:20:13:8314 Rx 1 0x175 s 8 00 00 00 00 00 00 00 00 
22:20:13:8369 Rx 1 0x5F1 s 8 00 00 00 00 93 93 01 01 
22:20:13:8458 Rx 1 0x5F2 s 8 03 F2 00 00 FF FF FF FF 
22:20:13:8658 Rx 1 0x205 s 5 00 00 00 00 00 
22:20:13:8709 Rx 1 0x121 s 6 51 FF E7 FF 3D FC 
22:20:13:8711 Rx 1 0x132 s 6 E4 00 F0 F8 58 CC 
22:20:13:8862 Rx 1 0x5FE s 8 00 00 00 00 00 00 01 5E 
22:20:13:8868 Rx 1 0x205 s 5 00 00 00 00 00 
22:20:13:9062 Rx 1 0x205 s 5 00 00 00 00 00 
22:20:13:9109 Rx 1 0x121 s 6 52 FF E6 FF 3D FC 
22:20:13:9111 Rx 1 0x132 s 6 E4 00 F0 F8 5C CC 
22:20:13:9126 Rx 1 0x205 s 5 00 00 00 00 00 
22:20:13:9266 Rx 1 0x5FE s 8 00 00 00 00 00 00 01 5E 
22:20:13:9370 Rx 1 0x205 s 5 00 00 00 00 00 
22:20:13:9468 Rx 1 0x5FD s 8 00 00 00 00 00 00 00 00 
22:20:13:9509 Rx 1 0x121 s 6 50 FF E6 FF 3C FC 
22:20:13:9511 Rx 1 0x132 s 6 E4 00 F0 F8 5F CC 
22:20:13:9668 Rx 1 0x205 s 5 00 00 00 00 00 
22:20:13:9872 Rx 1 0x5FE s 8 00 00 00 00 00 00 01 5E 
22:20:13:9874 Rx 1 0x205 s 5 00 00 00 00 00 
22:20:13:9909 Rx 1 0x121 s 6 50 FF E6 FF 3E FC 
22:20:13:9911 Rx 1 0x132 s 6 E4 00 F0 F8 62 CC 
22:20:13:9967 Rx 1 0x205 s 5 00 00 00 00 00 
22:20:14:0074 Rx 1 0x205 s 5 00 00 00 00 00 
22:20:14:0249 Rx 1 0x5FE s 8 00 00 00 00 00 00 01 5E 
22:20:14:0251 Rx 1 0x625 s 8 00 00 00 00 00 00 00 00 
22:20:14:0275 Rx 1 0x205 s 5 00 00 00 00 00 
22:20:14:0309 Rx 1 0x121 s 6 50 FF E7 FF 3D FC 
22:20:14:0311 Rx 1 0x132 s 6 E4 00 F0 F8 66 CC 
22:20:14:0314 Rx 1 0x175 s 8 00 00 00 00 00 00 00 00 
22:20:14:0376 Rx 1 0x5F1 s 8 00 00 00 00 93 93 01 01 
22:20:14:0478 Rx 1 0x5F2 s 8 03 F2 00 00 FF FF FF FF 
22:20:14:0677 Rx 1 0x205 s 5 00 00 00 00 00 
22:20:14:0709 Rx 1 0x121 s 6 51 FF E7 FF 3E FC 
22:20:14:0711 Rx 1 0x132 s 6 E4 00 F0 F8 69 CC 
22:20:14:0878 Rx 1 0x5FE s 8 00 00 00 00 00 00 01 5E 
22:20:14:0880 Rx 1 0x205 s 5 00 00 00 00 00 
22:20:14:1081 Rx 1 0x205 s 5 00 00 00 00 00 
22:20:14:1109 Rx 1 0x121 s 6 50 FF E7 FF 3D FC 
22:20:14:1112 Rx 1 0x132 s 6 E4 00 F0 F8 6D CC 
22:20:14:1127 Rx 1 0x5FE s 8 00 00 00 00 00 00 01 5E 
22:20:14:1203 Rx 1 0x205 s 5 00 00 00 00 00 
22:20:14:1285 Rx 1 0x205 s 5 00 00 00 00 00 
22:20:14:1380 Rx 1 0x5FD s 8 00 00 00 00 00 00 00 00 
22:20:14:1488 Rx 1 0x5FF s 8 02 BC FF F6 00 00 FF A6 
22:20:14:1509 Rx 1 0x121 s 6 50 FF E6 FF 3C FC 
22:20:14:1511 Rx 1 0x132 s 6 E4 00 F0 F8 70 CC 
22:20:14:1688 Rx 1 0x205 s 5 00 00 00 00 00 
22:20:14:1882 Rx 1 0x5FE s 8 00 00 00 00 00 00 01 5E 
22:20:14:1892 Rx 1 0x205 s 5 00 00 00 00 00 
22:20:14:1909 Rx 1 0x121 s 6 51 FF E6 FF 3E FC 
22:20:14:1911 Rx 1 0x132 s 6 E4 00 F1 F8 74 CC 
22:20:14:1967 Rx 1 0x205 s 5 00 00 00 00 00 
22:20:14:2093 Rx 1 0x5FE s 8 00 00 00 00 00 00 01 5E 
22:20:14:2249 Rx 1 0x205 s 5 00 00 00 00 00 
22:20:14:2252 Rx 1 0x625 s 8 00 00 00 00 00 00 00 00 
22:20:14:2294 Rx 1 0x205 s 5 00 00 00 00 00 
22:20:14:2309 Rx 1 0x121 s 6 51 FF E5 FF 3E FC 
22:20:14:2311 Rx 1 0x132 s 6 E4 00 F1 F8 77 CC 
22:20:14:2313 Rx 1 0x175 s 8 00 00 00 00 00 00 00 00 
22:20:14:2385 Rx 1 0x5F1 s 8 00 00 00 00 93 93 01 01 
22:20:14:2496 Rx 1 0x5F2 s 8 03 F2 00 00 FF FF FF FF 
22:20:14:2696 Rx 1 0x205 s 5 00 00 00 00 00 
22:20:14:2710 Rx 1 0x121 s 6 50 FF E6 FF 3D FC 
22:20:14:2711 Rx 1 0x132 s 6 E4 00 F1 F8 7B CC 
22:20:14:2888 Rx 1 0x5FE s 8 00 00 00 00 00 00 01 5E 
22:20:14:2897 Rx 1 0x205 s 5 00 00 00 00 00 
22:20:14:3096 Rx 1 0x205 s 5 00 00 00 00 00 
22:20:14:3109 Rx 1 0x121 s 6 4F FF E7 FF 3E FC 
22:20:14:3111 Rx 1 0x132 s 6 E4 00 F1 F8 7E CC 
22:20:14:3129 Rx 1 0x5FE s 8 00 00 00 00 00 00 01 5E 
22:20:14:3298 Rx 1 0x205 s 5 00 00 00 00 00 
22:20:14:3390 Rx 1 0x205 s 5 00 00 00 00 00 
22:20:14:3501 Rx 1 0x5FD s 8 00 00 00 00 00 00 00 00 
22:20:14:3509 Rx 1 0x121 s 6 50 FF E6 FF 3C FC 
22:20:14:3511 Rx 1 0x132 s 6 E4 00 F1 F8 82 CC 
22:20:14:3703 Rx 1 0x205 s 5 00 00 00 00 00 
22:20:14:3892 Rx 1 0x5FE s 8 00 00 00 00 00 00 01 5E 
22:20:14:3907 Rx 1 0x205 s 5 00 00 00 00 00 
22:20:14:3909 Rx 1 0x121 s 6 50 FF E7 FF 3D FC 
22:20:14:3911 Rx 1 0x132 s 6 E4 00 F1 F8 85 CC 
22:20:14:3968 Rx 1 0x205 s 5 00 00 00 00 00 
22:20:14:4110 Rx 1 0x5FE s 8 00 00 00 00 00 00 01 5E 
22:20:14:4251 Rx 1 0x205 s 5 00 00 00 00 00 
22:20:14:4254 Rx 1 0x625 s 8 00 00 00 00 00 00 00 00 
22:20:14:4309 Rx 1 0x121 s 6 51 FF E6 FF 3D FC 
22:20:14:4311 Rx 1 0x205 s 5 00 00 00 00 00 
22:20:14:4313 Rx 1 0x132 s 6 E4 00 F1 F8 88 CC 
22:20:14:4316 Rx 1 0x175 s 8 00 00 00 00 00 00 00 00 
22:20:14:4395 Rx 1 0x5F1 s 8 00 00 00 00 93 93 01 01 
22:20:14:4512 Rx 1 0x5F2 s 8 03 F2 00 00 FF FF FF FF 
22:20:14:4710 Rx 1 0x121 s 6 50 FF E8 FF 3C FC 
22:20:14:4712 Rx 1 0x132 s 6 E4 00 F1 F8 8C CC 
22:20:14:4716 Rx 1 0x205 s 5 00 00 00 00 00 
22:20:14:4898 Rx 1 0x5FE s 8 00 00 00 00 00 00 01 5E 
22:20:14:4918 Rx 1 0x205 s 5 00 00 00 00 00 
22:20:14:5109 Rx 1 0x121 s 6 51 FF E6 FF 3D FC 
22:20:14:5111 Rx 1 0x132 s 6 E4 00 F1 F8 8F CC 
22:20:14:5123 Rx 1 0x205 s 5 00 00 00 00 00 
22:20:14:5131 Rx 1 0x5FE s 8 00 00 00 00 00 00 01 5E 
22:20:14:5325 Rx 1 0x205 s 5 00 00 00 00 00 
22:20:14:5399 Rx 1 0x205 s 5 00 00 00 00 00 
22:20:14:5510 Rx 1 0x121 s 6 51 FF E6 FF 3C FC 
22:20:14:5512 Rx 1 0x132 s 6 E4 00 F1 F8 93 CC 
22:20:14:5525 Rx 1 0x5FD s 8 00 00 00 00 00 00 00 00 
22:20:14:5724 Rx 1 0x205 s 5 00 00 00 00 00 
22:20:14:5903 Rx 1 0x5FE s 8 00 00 00 00 00 00 01 5E 
22:20:14:5909 Rx 1 0x121 s 6 50 FF E7 FF 3D FC 
22:20:14:5911 Rx 1 0x132 s 6 E4 00 F1 F8 96 CC 
22:20:14:5924 Rx 1 0x205 s 5 00 00 00 00 00 
22:20:14:5971 Rx 1 0x205 s 5 00 00 00 00 00 
22:20:14:6124 Rx 1 0x5FE s 8 00 00 00 00 00 00 01 5E 
22:20:14:6203 Rx 1 0x205 s 5 00 00 00 00 00 
22:20:14:6252 Rx 1 0x625 s 8 00 00 00 00 00 00 00 00 
22:20:14:6254 Rx 1 0x205 s 5 00 00 00 00 00 
22:20:14:6309 Rx 1 0x121 s 6 51 FF E6 FF 3F FC 
22:20:14:6311 Rx 1 0x132 s 6 E4 00 F1 F8 9A CC 
22:20:14:6314 Rx 1 0x175 s 8 00 00 00 00 00 00 00 00 
22:20:14:6327 Rx 1 0x5FF s 8 02 BC FF F6 00 00 FF A6 
22:20:14:6404 Rx 1 0x5F1 s 8 00 00 00 00 93 93 01 01 
22:20:14:6533 Rx 1 0x5F2 s 8 03 F2 00 00 FF FF FF FF 
22:20:14:6709 Rx 1 0x121 s 6 51 FF E6 FF 3A FC 
22:20:14:6711 Rx 1 0x132 s 6 E4 00 F1 F8 9D CC 
22:20:14:6733 Rx 1 0x205 s 5 00 00 00 00 00 
22:20:14:6907 Rx 1 0x5FE s 8 00 00 00 00 00 00 01 5E 
22:20:14:6932 Rx 1 0x205 s 5 00 00 00 00 00 
22:20:14:7109 Rx 1 0x121 s 6 50 FF E6 FF 3E FC 
22:20:14:7111 Rx 1 0x132 s 6 E4 00 F1 F8 A1 CC 
22:20:14:7131 Rx 1 0x205 s 5 00 00 00 00 00 
22:20:14:7134 Rx 1 0x5FE s 8 00 00 00 00 00 00 01 5E 
22:20:14:7335 Rx 1 0x205 s 5 00 00 00 00 00 
22:20:14:7410 Rx 1 0x5FD s 8 00 00 00 00 00 00 00 00 
22:20:14:7509 Rx 1 0x121 s 6 51 FF E7 FF 3E FC 
22:20:14:7511 Rx 1 0x132 s 6 E4 00 F1 F8 A4 CC 
22:20:14:7534 Rx 1 0x205 s 5 00 00 00 00 00 
22:20:14:7734 Rx 1 0x205 s 5 00 00 00 00 00 
22:20:14:7909 Rx 1 0x121 s 6 50 FF E6 FF 3C FC 
22:20:14:7911 Rx 1 0x132 s 6 E4 00 F1 F8 A8 CC 
22:20:14:7913 Rx 1 0x5FE s 8 00 00 00 00 00 00 01 5E 
22:20:14:7933 Rx 1 0x205 s 5 00 00 00 00 00 
22:20:14:7973 Rx 1 0x205 s 5 00 00 00 00 00 
22:20:14:8135 Rx 1 0x5FE s 8 00 00 00 00 00 00 01 5E 
22:20:14:8255 Rx 1 0x205 s 5 00 00 00 00 00 
22:20:14:8258 Rx 1 0x625 s 8 00 00 00 00 00 00 00 00 
22:20:14:8309 Rx 1 0x121 s 6 50 FF E6 FF 3C FC 
22:20:14:8311 Rx 1 0x132 s 6 E4 00 F1 F8 AB CC 
22:20:14:8314 Rx 1 0x175 s 8 00 00 00 00 00 00 00 00 
22:20:14:8338 Rx 1 0x205 s 5 00 00 00 00 00 
22:20:14:8416 Rx 1 0x5F1 s 8 00 00 00 00 93 93 01 01 
22:20:14:8543 Rx 1 0x5F2 s 8 03 F2 00 00 FF FF FF FF 
22:20:14:8709 Rx 1 0x121 s 6 4F FF E8 FF 3C FC 
22:20:14:8711 Rx 1 0x132 s 6 E4 00 F1 F8 AE CC 
22:20:14:8744 Rx 1 0x205 s 5 00 00 00 00 00 
22:20:14:8918 Rx 1 0x5FE s 8 00 00 00 00 00 00 01 5E 
22:20:14:8943 Rx 1 0x205 s 5 00 00 00 00 00 
22:20:14:9109 Rx 1 0x121 s 6 50 FF E8 FF 3D FC 
22:20:14:9111 Rx 1 0x132 s 6 E4 00 F1 F8 B2 CC 
22:20:14:9134 Rx 1 0x205 s 5 00 00 00 00 00 
22:20:14:9145 Rx 1 0x5FE s 8 00 00 00 00 00 00 01 5E 
22:20:14:9360 Rx 1 0x205 s 5 00 00 00 00 00 
22:20:14:9421 Rx 1 0x5FD s 8 00 00 00 00 00 00 00 00 
22:20:14:9509 Rx 1 0x121 s 6 51 FF E7 FF 3D FC 
22:20:14:9511 Rx 1 0x132 s 6 E4 00 F1 F8 B5 CC 
22:20:14:9562 Rx 1 0x205 s 5 00 00 00 00 00 
22:20:14:9761 Rx 1 0x205 s 5 00 00 00 00 00 
22:20:14:9909 Rx 1 0x121 s 6 50 FF E5 FF 3D FC 
22:20:14:9911 Rx 1 0x132 s 6 E4 00 F1 F8 B9 CC 
22:20:14:9924 Rx 1 0x5FE s 8 00 00 00 00 00 00 01 5E 
22:20:14:9965 Rx 1 0x205 s 5 00 00 00 00 00 
22:20:14:9976 Rx 1 0x205 s 5 00 00 00 00 00 
22:20:15:0168 Rx 1 0x5FE s 8 00 00 00 00 00 00 01 5E 
22:20:15:0255 Rx 1 0x205 s 5 00 00 00 00 00 
22:20:15:0258 Rx 1 0x625 s 8 00 00 00 00 00 00 00 00 
22:20:15:0309 Rx 1 0x121 s 6 4F FF E7 FF 3D FC 
22:20:15:0311 Rx 1 0x132 s 6 E4 00 F1 F8 BC CC 
22:20:15:0314 Rx 1 0x175 s 8 00 00 00 00 00 00 00 00 
22:20:15:0371 Rx 1 0x205 s 5 00 00 00 00 00 
22:20:15:0426 Rx 1 0x5F1 s 8 00 00 00 00 93 93 01 01 
22:20:15:0574 Rx 1 0x5F2 s 8 03 F2 00 00 FF FF FF FF 
22:20:15:0709 Rx 1 0x121 s 6 51 FF E6 FF 3E FC 
22:20:15:0711 Rx 1 0x132 s 6 E4 00 F1 F8 BF CC 
22:20:15:0775 Rx 1 0x205 s 5 00 00 00 00 00 
22:20:15:0929 Rx 1 0x5FE s 8 00 00 00 00 00 00 01 5E 
22:20:15:0976 Rx 1 0x205 s 5 00 00 00 00 00 
22:20:15:1109 Rx 1 0x121 s 6 50 FF E6 FF 3D FC 
22:20:15:1110 Rx 1 0x132 s 6 E4 00 F1 F8 C3 CC 
22:20:15:1136 Rx 1 0x205 s 5 00 00 00 00 00 
22:20:15:1181 Rx 1 0x5FE s 8 00 00 00 00 00 00 01 5E 
22:20:15:1205 Rx 1 0x205 s 5 00 00 00 00 00 
22:20:15:1386 Rx 1 0x5FD s 8 00 00 00 00 00 00 00 00 
22:20:15:1430 Rx 1 0x205 s 5 00 00 00 00 00 
22:20:15:1509 Rx 1 0x121 s 6 51 FF E8 FF 3C FC 
22:20:15:1511 Rx 1 0x132 s 6 E4 00 F2 F8 C7 CC 
22:20:15:1587 Rx 1 0x5FF s 8 02 BC FF F6 00 00 FF A6 
22:20:15:1788 Rx 1 0x205 s 5 00 00 00 00 00 
22:20:15:1909 Rx 1 0x121 s 6 50 FF E6 FF 3C FC 
22:20:15:1911 Rx 1 0x132 s 6 E4 00 F2 F8 CA CC 
22:20:15:1935 Rx 1 0x5FE s 8 00 00 00 00 00 00 01 5E 
22:20:15:1977 Rx 1 0x205 s 5 00 00 00 00 00 
22:20:15:1991 Rx 1 0x205 s 5 00 00 00 00 00 
22:20:15:2194 Rx 1 0x5FE s 8 00 00 00 00 00 00 01 5E 
22:20:15:2258 Rx 1 0x625 s 8 00 00 00 00 00 00 00 00 
22:20:15:2260 Rx 1 0x205 s 5 00 00 00 00 00 
22:20:15:2309 Rx 1 0x121 s 6 52 FF E6 FF 3D FC 
22:20:15:2311 Rx 1 0x132 s 6 E4 00 F2 F8 CE CC 
22:20:15:2314 Rx 1 0x175 s 8 00 00 00 00 00 00 00 00 
22:20:15:2396 Rx 1 0x205 s 5 00 00 00 00 00 
22:20:15:2436 Rx 1 0x5F1 s 8 00 00 00 00 93 93 01 01 
22:20:15:2600 Rx 1 0x5F2 s 8 03 F2 00 00 FF FF FF FF 
22:20:15:2709 Rx 1 0x121 s 6 4F FF E5 FF 3C FC 
22:20:15:2711 Rx 1 0x132 s 6 E4 00 F2 F8 D1 CC 
22:20:15:2801 Rx 1 0x205 s 5 00 00 00 00 00 
22:20:15:2939 Rx 1 0x5FE s 8 00 00 00 00 00 00 01 5E 
22:20:15:3001 Rx 1 0x205 s 5 00 00 00 00 00 
22:20:15:3109 Rx 1 0x121 s 6 52 FF E6 FF 3D FC 
22:20:15:3110 Rx 1 0x132 s 6 E4 00 F2 F8 D5 CC 
22:20:15:3139 Rx 1 0x205 s 5 00 00 00 00 00 
22:20:15:3203 Rx 1 0x5FE s 8 00 00 00 00 00 00 01 5E 
22:20:15:3405 Rx 1 0x205 s 5 00 00 00 00 00 
22:20:15:3439 Rx 1 0x5FD s 8 00 00 00 00 00 00 00 00 
22:20:15:3509 Rx 1 0x121 s 6 51 FF E6 FF 3C FC 
22:20:15:3511 Rx 1 0x132 s 6 E4 00 F2 F8 D8 CC 
22:20:15:3608 Rx 1 0x205 s 5 00 00 00 00 00 
22:20:15:3808 Rx 1 0x205 s 5 00 00 00 00 00 
22:20:15:3909 Rx 1 0x121 s 6 53 FF E8 FF 3E FC 
22:20:15:3910 Rx 1 0x132 s 6 E3 00 F2 F8 DC CC 
22:20:15:3942 Rx 1 0x5FE s 8 00 00 00 00 00 00 01 5E 
22:20:15:3979 Rx 1 0x205 s 5 00 00 00 00 00 
22:20:15:4009 Rx 1 0x205 s 5 00 00 00 00 00 
22:20:15:4214 Rx 1 0x5FE s 8 00 00 00 00 00 00 01 5E 
22:20:15:4258 Rx 1 0x625 s 8 00 00 00 00 00 00 00 00 
22:20:15:4260 Rx 1 0x205 s 5 00 00 00 00 00 
22:20:15:4309 Rx 1 0x121 s 6 52 FF E5 FF 3C FC 
22:20:15:4311 Rx 1 0x132 s 6 E3 00 F3 F8 DF CC 
22:20:15:4314 Rx 1 0x175 s 8 00 00 00 00 00 00 00 00 
22:20:15:4416 Rx 1 0x205 s 5 00 00 00 00 00 
22:20:15:4444 Rx 1 0x5F1 s 8 00 00 00 00 93 93 01 01 
22:20:15:4618 Rx 1 0x5F2 s 8 03 F2 00 00 FF FF FF FF 
22:20:15:4709 Rx 1 0x121 s 6 52 FF E6 FF 3B FC 
22:20:15:4710 Rx 1 0x132 s 6 E3 00 F3 F8 E3 CC 
22:20:15:4821 Rx 1 0x205 s 5 00 00 00 00 00 
22:20:15:4947 Rx 1 0x5FE s 8 00 00 00 00 00 00 01 5E 
22:20:15:5021 Rx 1 0x205 s 5 00 00 00 00 00 
22:20:15:5109 Rx 1 0x121 s 6 51 FF E7 FF 3F FC 
22:20:15:5110 Rx 1 0x132 s 6 E2 00 F3 F8 E6 CC 
22:20:15:5142 Rx 1 0x205 s 5 00 00 00 00 00 
22:20:15:5221 Rx 1 0x5FE s 8 00 00 00 00 00 00 01 5E 
22:20:15:5425 Rx 1 0x205 s 5 00 00 00 00 00 
22:20:15:5449 Rx 1 0x5FD s 8 00 00 00 00 00 00 00 00 
22:20:15:5509 Rx 1 0x121 s 6 50 FF E7 FF 3C FC 
22:20:15:5511 Rx 1 0x132 s 6 E2 00 F3 F8 EA CC 
22:20:15:5626 Rx 1 0x205 s 5 00 00 00 00 00 
22:20:15:5826 Rx 1 0x205 s 5 00 00 00 00 00 
22:20:15:5909 Rx 1 0x121 s 6 50 FF E7 FF 3D FC 
22:20:15:5911 Rx 1 0x132 s 6 E2 00 F3 F8 ED CC 
22:20:15:5950 Rx 1 0x5FE s 8 00 00 00 00 00 00 01 5E 
22:20:15:5982 Rx 1 0x205 s 5 00 00 00 00 00 
22:20:15:6027 Rx 1 0x205 s 5 00 00 00 00 00 
22:20:15:6208 Rx 1 0x5FE s 8 00 00 00 00 00 00 01 5E 
22:20:15:6227 Rx 1 0x625 s 8 00 00 00 00 00 00 00 00 
22:20:15:6261 Rx 1 0x205 s 5 00 00 00 00 00 
22:20:15:6264 Rx 1 0x5FF s 8 02 BC FF F6 00 00 FF A6 
22:20:15:6309 Rx 1 0x121 s 6 51 FF E7 FF 40 FC 
22:20:15:6311 Rx 1 0x132 s 6 E3 00 F3 F8 F1 CC 
22:20:15:6314 Rx 1 0x175 s 8 00 00 00 00 00 00 00 00 
22:20:15:6429 Rx 1 0x205 s 5 00 00 00 00 00 
22:20:15:6454 Rx 1 0x5F1 s 8 00 00 00 00 93 93 01 01 
22:20:15:6632 Rx 1 0x5F2 s 8 03 F2 00 00 FF FF FF FF 
22:20:15:6710 Rx 1 0x121 s 6 50 FF E7 FF 3E FC 
22:20:15:6713 Rx 1 0x132 s 6 E3 00 F3 F8 F4 CC 
22:20:15:6835 Rx 1 0x205 s 5 00 00 00 00 00 
22:20:15:6956 Rx 1 0x5FE s 8 00 00 00 00 00 00 01 5E 
22:20:15:7034 Rx 1 0x205 s 5 00 00 00 00 00 
22:20:15:7109 Rx 1 0x121 s 6 4D FF E5 FF 3B FC 
22:20:15:7110 Rx 1 0x132 s 6 E4 00 F3 F8 F8 CC 
22:20:15:7145 Rx 1 0x205 s 5 00 00 00 00 00 
22:20:15:7235 Rx 1 0x5FE s 8 00 00 00 00 00 00 01 5E 
22:20:15:7434 Rx 1 0x205 s 5 00 00 00 00 00 
22:20:15:7457 Rx 1 0x5FD s 8 00 00 00 00 00 00 00 00 
22:20:15:7509 Rx 1 0x121 s 6 50 FF E9 FF 3E FC 
22:20:15:7511 Rx 1 0x132 s 6 E4 00 F3 F8 FB CC 
22:20:15:7635 Rx 1 0x205 s 5 00 00 00 00 00 
22:20:15:7834 Rx 1 0x205 s 5 00 00 00 00 00 
22:20:15:7909 Rx 1 0x121 s 6 51 FF E8 FF 3D FC 
22:20:15:7911 Rx 1 0x132 s 6 E4 00 F3 F8 FF CC 
22:20:15:7959 Rx 1 0x5FE s 8 00 00 00 00 00 00 01 5E 
22:20:15:7981 Rx 1 0x205 s 5 00 00 00 00 00 
22:20:15:8036 Rx 1 0x205 s 5 00 00 00 00 00 
22:20:15:8236 Rx 1 0x5FE s 8 00 00 00 00 00 00 01 5E 
22:20:15:8242 Rx 1 0x625 s 8 00 00 00 00 00 00 00 00 
22:20:15:8244 Rx 1 0x205 s 5 00 00 00 00 00 
22:20:15:8264 Rx 1 0x205 s 5 00 00 00 00 00 
22:20:15:8266 Rx 1 0x200 s 0 
22:20:15:8309 Rx 1 0x121 s 6 4F FF E5 FF 3C FC 
22:20:15:8311 Rx 1 0x132 s 6 E4 00 F3 F8 02 CD 
22:20:15:8314 Rx 1 0x175 s 8 00 00 00 00 00 00 00 00 
22:20:15:8439 Rx 1 0x201 s 8 00 00 0F 00 14 14 00 00 
22:20:15:8462 Rx 1 0x5F1 s 8 00 00 00 00 93 93 01 01 
22:20:15:8640 Rx 1 0x5F2 s 8 03 F2 00 00 FF FF FF FF 
22:20:15:8708 Rx 1 0x121 s 6 52 FF E7 FF 3E FC 
22:20:15:8710 Rx 1 0x132 s 6 E4 00 F3 F8 05 CD 
22:20:15:8844 Rx 1 0x205 s 5 00 00 00 00 00 
22:20:15:8966 Rx 1 0x5FE s 8 00 00 00 00 00 00 01 5E 
22:20:15:9044 Rx 1 0x205 s 5 00 00 00 00 00 
22:20:15:9109 Rx 1 0x121 s 6 51 FF E5 FF 3C FC 
22:20:15:9111 Rx 1 0x132 s 6 E3 00 F3 F8 09 CD 
22:20:15:9149 Rx 1 0x205 s 5 00 00 00 00 00 
22:20:15:9244 Rx 1 0x5FE s 8 00 00 00 00 00 00 01 5E 
22:20:15:9448 Rx 1 0x205 s 5 00 00 00 00 00 
22:20:15:9465 Rx 1 0x5FD s 8 00 00 00 00 00 00 00 00 
22:20:15:9508 Rx 1 0x121 s 6 52 FF E8 FF 3D FC 
22:20:15:9511 Rx 1 0x132 s 6 E4 00 F3 F8 0C CD 
22:20:15:9651 Rx 1 0x205 s 5 00 00 00 00 00 
22:20:15:9854 Rx 1 0x205 s 5 00 00 00 00 00 
22:20:15:9908 Rx 1 0x121 s 6 50 FF E7 FF 3E FC 
22:20:15:9910 Rx 1 0x132 s 6 E3 00 F3 F8 10 CD 
22:20:15:9968 Rx 1 0x5FE s 8 00 00 00 00 00 00 01 5E 
22:20:15:9984 Rx 1 0x205 s 5 00 00 00 00 00 
22:20:16:0055 Rx 1 0x205 s 5 00 00 00 00 00 
22:20:16:0256 Rx 1 0x5FE s 8 00 00 00 00 00 00 01 5E 
22:20:16:0268 Rx 1 0x625 s 8 00 00 00 00 00 00 00 00 
22:20:16:0270 Rx 1 0x205 s 5 00 00 00 00 00 
22:20:16:0309 Rx 1 0x121 s 6 51 FF E6 FF 3E FC 
22:20:16:0311 Rx 1 0x132 s 6 E4 00 F3 F8 13 CD 
22:20:16:0314 Rx 1 0x175 s 8 00 00 00 00 00 00 00 00 
22:20:16:0458 Rx 1 0x205 s 5 00 00 00 00 00 
22:20:16:0470 Rx 1 0x5F1 s 8 00 00 00 00 93 93 01 01 
22:20:16:0660 Rx 1 0x5F2 s 8 03 F2 00 00 FF FF FF FF 
22:20:16:0708 Rx 1 0x121 s 6 51 FF E7 FF 3C FC 
22:20:16:0710 Rx 1 0x132 s 6 E4 00 F3 F8 17 CD 
22:20:16:0863 Rx 1 0x205 s 5 00 00 00 00 00 
22:20:16:0972 Rx 1 0x5FE s 8 00 00 00 00 00 00 01 5E 
22:20:16:1063 Rx 1 0x205 s 5 00 00 00 00 00 
22:20:16:1109 Rx 1 0x121 s 6 50 FF E7 FF 3E FC 
22:20:16:1111 Rx 1 0x132 s 6 E4 00 F3 F8 1A CD 
22:20:16:1152 Rx 1 0x205 s 5 00 00 00 00 00 
22:20:16:1212 Rx 1 0x5FE s 8 00 00 00 00 00 00 01 5E 
22:20:16:1263 Rx 1 0x205 s 5 00 00 00 00 00 
22:20:16:1464 Rx 1 0x5FD s 8 00 00 00 00 00 00 00 00 
22:20:16:1476 Rx 1 0x5FF s 8 02 BC FF F6 00 00 FF A6 
22:20:16:1509 Rx 1 0x121 s 6 51 FF E7 FF 3E FC 
22:20:16:1511 Rx 1 0x132 s 6 E4 00 F3 F8 1E CD 
22:20:16:1665 Rx 1 0x205 s 5 00 00 00 00 00 
22:20:16:1869 Rx 1 0x205 s 5 00 00 00 00 00 
22:20:16:1909 Rx 1 0x121 s 6 50 FF E6 FF 3C FC 
22:20:16:1910 Rx 1 0x132 s 6 E3 00 F3 F8 21 CD 
22:20:16:1977 Rx 1 0x5FE s 8 00 00 00 00 00 00 01 5E 
22:20:16:1983 Rx 1 0x205 s 5 00 00 00 00 00 
22:20:16:2070 Rx 1 0x205 s 5 00 00 00 00 00 
22:20:16:2271 Rx 1 0x5FE s 8 00 00 00 00 00 00 01 5E 
22:20:16:2274 Rx 1 0x625 s 8 00 00 00 00 00 00 00 00 
22:20:16:2274 Rx 1 0x205 s 5 00 00 00 00 00 
22:20:16:2309 Rx 1 0x121 s 6 51 FF E6 FF 41 FC 
22:20:16:2311 Rx 1 0x132 s 6 E3 00 F3 F8 24 CD 
22:20:16:2313 Rx 1 0x175 s 8 00 00 00 00 00 00 00 00 
22:20:16:2473 Rx 1 0x205 s 5 00 00 00 00 00 
22:20:16:2480 Rx 1 0x5F1 s 8 00 00 00 00 93 93 01 01 
22:20:16:2674 Rx 1 0x5F2 s 8 03 F2 00 00 FF FF FF FF 
22:20:16:2708 Rx 1 0x121 s 6 51 FF E4 FF 3B FC 
22:20:16:2710 Rx 1 0x132 s 6 E3 00 F3 F8 28 CD 
22:20:16:2874 Rx 1 0x205 s 5 00 00 00 00 00 
22:20:16:2983 Rx 1 0x5FE s 8 00 00 00 00 00 00 01 5E 
22:20:16:3074 Rx 1 0x205 s 5 00 00 00 00 00 
22:20:16:3109 Rx 1 0x121 s 6 50 FF E7 FF 3E FC 
22:20:16:3111 Rx 1 0x132 s 6 E4 00 F3 F8 2B CD 
22:20:16:3153 Rx 1 0x205 s 5 00 00 00 00 00 
22:20:16:3274 Rx 1 0x5FE s 8 00 00 00 00 00 00 01 5E 
22:20:16:3475 Rx 1 0x205 s 5 00 00 00 00 00 
22:20:16:3488 Rx 1 0x5FD s 8 00 00 00 00 00 00 00 00 
22:20:16:3509 Rx 1 0x121 s 6 51 FF E7 FF 3E FC 
22:20:16:3511 Rx 1 0x132 s 6 E4 00 F4 F8 2F CD 
22:20:16:3675 Rx 1 0x205 s 5 00 00 00 00 00 
22:20:16:3879 Rx 1 0x205 s 5 00 00 00 00 00 
22:20:16:3909 Rx 1 0x121 s 6 50 FF E5 FF 3D FC 
22:20:16:3911 Rx 1 0x132 s 6 E4 00 F4 F8 32 CD 
22:20:16:3984 Rx 1 0x5FE s 8 00 00 00 00 00 00 01 5E 
22:20:16:3990 Rx 1 0x205 s 5 00 00 00 00 00 
22:20:16:4081 Rx 1 0x205 s 5 00 00 00 00 00 
22:20:16:4273 Rx 1 0x625 s 8 00 00 00 00 00 00 00 00 
22:20:16:4276 Rx 1 0x5FE s 8 00 00 00 00 00 00 01 5E 
22:20:16:4281 Rx 1 0x205 s 5 00 00 00 00 00 
22:20:16:4309 Rx 1 0x121 s 6 53 FF E6 FF 3D FC 
22:20:16:4310 Rx 1 0x132 s 6 E4 00 F4 F8 36 CD 
22:20:16:4313 Rx 1 0x175 s 8 00 00 00 00 00 00 00 00 
22:20:16:4484 Rx 1 0x5F1 s 8 00 00 00 00 93 93 01 01 
22:20:16:4491 Rx 1 0x5F2 s 8 03 F2 00 00 FF FF FF FF 
22:20:16:4692 Rx 1 0x205 s 5 00 00 00 00 00 
22:20:16:4708 Rx 1 0x121 s 6 51 FF E7 FF 3D FC 
22:20:16:4710 Rx 1 0x132 s 6 E4 00 F4 F8 39 CD 
22:20:16:4895 Rx 1 0x205 s 5 00 00 00 00 00 
22:20:16:4994 Rx 1 0x5FE s 8 00 00 00 00 00 00 01 5E 
22:20:16:5096 Rx 1 0x205 s 5 00 00 00 00 00 
22:20:16:5108 Rx 1 0x121 s 6 51 FF E6 FF 3D FC 
22:20:16:5110 Rx 1 0x132 s 6 E4 00 F4 F8 3D CD 
22:20:16:5155 Rx 1 0x205 s 5 00 00 00 00 00 
22:20:16:5300 Rx 1 0x5FE s 8 00 00 00 00 00 00 01 5E 
22:20:16:5498 Rx 1 0x205 s 5 00 00 00 00 00 
22:20:16:5502 Rx 1 0x5FD s 8 00 00 00 00 00 00 00 00 
22:20:16:5509 Rx 1 0x121 s 6 51 FF E6 FF 3D FC 
22:20:16:5511 Rx 1 0x132 s 6 E3 00 F4 F8 40 CD 
22:20:16:5701 Rx 1 0x205 s 5 00 00 00 00 00 
22:20:16:5906 Rx 1 0x5FE s 8 00 00 00 00 00 00 01 5E 
22:20:16:5908 Rx 1 0x121 s 6 50 FF E6 FF 3C FC 
22:20:16:5910 Rx 1 0x132 s 6 E4 00 F4 F8 44 CD 
22:20:16:5987 Rx 1 0x205 s 5 00 00 00 00 00 
22:20:16:5998 Rx 1 0x205 s 5 00 00 00 00 00 
22:20:16:6107 Rx 1 0x205 s 5 00 00 00 00 00 
22:20:16:6213 Rx 1 0x625 s 8 00 00 00 00 00 00 00 00 
22:20:16:6274 Rx 1 0x5FE s 8 00 00 00 00 00 00 01 5E 
22:20:16:6276 Rx 1 0x205 s 5 00 00 00 00 00 
22:20:16:6308 Rx 1 0x5FF s 8 02 BC FF F6 00 00 FF A6 
22:20:16:6310 Rx 1 0x121 s 6 52 FF E6 FF 3D FC 
22:20:16:6312 Rx 1 0x132 s 6 E3 00 F4 F8 47 CD 
22:20:16:6315 Rx 1 0x175 s 8 00 00 00 00 00 00 00 00 
22:20:16:6502 Rx 1 0x5F1 s 8 00 00 00 00 93 93 01 01 
22:20:16:6511 Rx 1 0x5F2 s 8 03 F2 00 00 FF FF FF FF 
22:20:16:6708 Rx 1 0x121 s 6 50 FF E6 FF 3C FC 
22:20:16:6710 Rx 1 0x205 s 5 00 00 00 00 00 
22:20:16:6712 Rx 1 0x132 s 6 E3 00 F4 F8 4B CD 
22:20:16:6913 Rx 1 0x5FE s 8 00 00 00 00 00 00 01 5E 
22:20:16:7005 Rx 1 0x205 s 5 00 00 00 00 00 
22:20:16:7108 Rx 1 0x121 s 6 52 FF E7 FF 3D FC 
22:20:16:7110 Rx 1 0x132 s 6 E3 00 F4 F8 4E CD 
22:20:16:7112 Rx 1 0x205 s 5 00 00 00 00 00 
22:20:16:7154 Rx 1 0x205 s 5 00 00 00 00 00 
22:20:16:7316 Rx 1 0x5FE s 8 00 00 00 00 00 00 01 5E 
22:20:16:7509 Rx 1 0x205 s 5 00 00 00 00 00 
22:20:16:7510 Rx 1 0x121 s 6 4F FF E6 FF 3F FC 
22:20:16:7512 Rx 1 0x132 s 6 E3 00 F4 F8 52 CD 
22:20:16:7518 Rx 1 0x5FD s 8 00 00 00 00 00 00 00 00 
22:20:16:7719 Rx 1 0x205 s 5 00 00 00 00 00 
22:20:16:7909 Rx 1 0x121 s 6 51 FF E6 FF 3D FC 
22:20:16:7910 Rx 1 0x132 s 6 E3 00 F4 F8 55 CD 
22:20:16:7923 Rx 1 0x5FE s 8 00 00 00 00 00 00 01 5E 
22:20:16:7987 Rx 1 0x205 s 5 00 00 00 00 00 
22:20:16:8009 Rx 1 0x205 s 5 00 00 00 00 00 
22:20:16:8125 Rx 1 0x205 s 5 00 00 00 00 00 
22:20:16:8277 Rx 1 0x625 s 8 00 00 00 00 00 00 00 00 
22:20:16:8280 Rx 1 0x5FE s 8 00 00 00 00 00 00 01 5E 
22:20:16:8309 Rx 1 0x121 s 6 51 FF E7 FF 3D FC 
22:20:16:8312 Rx 1 0x132 s 6 E3 00 F4 F8 59 CD 
22:20:16:8314 Rx 1 0x175 s 8 00 00 00 00 00 00 00 00 
22:20:16:8327 Rx 1 0x205 s 5 00 00 00 00 00 
22:20:16:8511 Rx 1 0x5F1 s 8 00 00 00 00 93 93 01 01 
22:20:16:8527 Rx 1 0x5F2 s 8 03 F2 00 00 FF FF FF FF 
22:20:16:8708 Rx 1 0x121 s 6 50 FF E5 FF 3D FC 
22:20:16:8710 Rx 1 0x132 s 6 E3 00 F4 F8 5C CD 
22:20:16:8728 Rx 1 0x205 s 5 00 00 00 00 00 
22:20:16:8928 Rx 1 0x5FE s 8 00 00 00 00 00 00 01 5E 
22:20:16:9015 Rx 1 0x205 s 5 00 00 00 00 00 
22:20:16:9108 Rx 1 0x121 s 6 50 FF E6 FF 3D FC 
22:20:16:9113 Rx 1 0x132 s 6 E3 00 F4 F8 60 CD 
22:20:16:9129 Rx 1 0x205 s 5 00 00 00 00 00 
22:20:16:9154 Rx 1 0x205 s 5 00 00 00 00 00 
22:20:16:9331 Rx 1 0x5FE s 8 00 00 00 00 00 00 01 5E 
22:20:16:9509 Rx 1 0x121 s 6 52 FF E7 FF 3D FC 
22:20:16:9512 Rx 1 0x132 s 6 E3 00 F4 F8 64 CD 
22:20:16:9520 Rx 1 0x205 s 5 00 00 00 00 00 
22:20:16:9530 Rx 1 0x5FD s 8 00 00 00 00 00 00 00 00 
22:20:16:9730 Rx 1 0x205 s 5 00 00 00 00 00 
22:20:16:9909 Rx 1 0x121 s 6 51 FF E6 FF 3D FC 
22:20:16:9910 Rx 1 0x132 s 6 E3 00 F4 F8 67 CD 
22:20:16:9934 Rx 1 0x5FE s 8 00 00 00 00 00 00 01 5E 
22:20:16:9989 Rx 1 0x205 s 5 00 00 00 00 00 
22:20:17:0021 Rx 1 0x205 s 5 00 00 00 00 00 
22:20:17:0134 Rx 1 0x205 s 5 00 00 00 00 00 
22:20:17:0279 Rx 1 0x625 s 8 00 00 00 00 00 00 00 00 
22:20:17:0282 Rx 1 0x5FE s 8 00 00 00 00 00 00 01 5E 
22:20:17:0308 Rx 1 0x121 s 6 52 FF E5 FF 3F FC 
22:20:17:0310 Rx 1 0x132 s 6 E3 00 F4 F8 6B CD 
22:20:17:0313 Rx 1 0x175 s 8 00 00 00 00 00 00 00 00 
22:20:17:0337 Rx 1 0x205 s 5 00 00 00 00 00 
22:20:17:0524 Rx 1 0x5F1 s 8 00 00 00 00 93 93 01 01 
22:20:17:0538 Rx 1 0x5F2 s 8 03 F2 00 00 FF FF FF FF 
22:20:17:0708 Rx 1 0x121 s 6 4F FF E6 FF 3D FC 
22:20:17:0710 Rx 1 0x132 s 6 E4 00 F4 F8 6E CD 
22:20:17:0738 Rx 1 0x205 s 5 00 00 00 00 00 
22:20:17:0938 Rx 1 0x5FE s 8 00 00 00 00 00 00 01 5E 
22:20:17:1026 Rx 1 0x205 s 5 00 00 00 00 00 
22:20:17:1109 Rx 1 0x121 s 6 51 FF E6 FF 3C FC 
22:20:17:1111 Rx 1 0x132 s 6 E4 00 F5 F8 72 CD 
22:20:17:1140 Rx 1 0x205 s 5 00 00 00 00 00 
22:20:17:1158 Rx 1 0x205 s 5 00 00 00 00 00 
22:20:17:1217 Rx 1 0x5FE s 8 00 00 00 00 00 00 01 5E 
22:20:17:1342 Rx 1 0x205 s 5 00 00 00 00 00 
22:20:17:1509 Rx 1 0x121 s 6 50 FF E6 FF 3D FC 
22:20:17:1511 Rx 1 0x132 s 6 E4 00 F5 F8 75 CD 
22:20:17:1533 Rx 1 0x5FD s 8 00 00 00 00 00 00 00 00 
22:20:17:1546 Rx 1 0x5FF s 8 02 BC FF F6 00 00 FF A6 
22:20:17:1747 Rx 1 0x205 s 5 00 00 00 00 00 
22:20:17:1908 Rx 1 0x121 s 6 52 FF E6 FF 3D FC 
22:20:17:1910 Rx 1 0x132 s 6 E4 00 F5 F8 79 CD 
22:20:17:1951 Rx 1 0x5FE s 8 00 00 00 00 00 00 01 5E 
22:20:17:1988 Rx 1 0x205 s 5 00 00 00 00 00 
22:20:17:2039 Rx 1 0x205 s 5 00 00 00 00 00 
22:20:17:2151 Rx 1 0x205 s 5 00 00 00 00 00 
22:20:17:2279 Rx 1 0x625 s 8 00 00 00 00 00 00 00 00 
22:20:17:2281 Rx 1 0x5FE s 8 00 00 00 00 00 00 01 5E 
22:20:17:2309 Rx 1 0x121 s 6 50 FF E7 FF 3E FC 
22:20:17:2311 Rx 1 0x132 s 6 E4 00 F5 F8 7C CD 
22:20:17:2313 Rx 1 0x175 s 8 00 00 00 00 00 00 00 00 
22:20:17:2354 Rx 1 0x205 s 5 00 00 00 00 00 
22:20:17:2544 Rx 1 0x5F1 s 8 00 00 00 00 93 93 01 01 
22:20:17:2558 Rx 1 0x5F2 s 8 03 F2 00 00 FF FF FF FF 
22:20:17:2709 Rx 1 0x121 s 6 4F FF E7 FF 3E FC 
22:20:17:2710 Rx 1 0x132 s 6 E4 00 F5 F8 80 CD 
22:20:17:2758 Rx 1 0x205 s 5 00 00 00 00 00 
22:20:17:2960 Rx 1 0x5FE s 8 00 00 00 00 00 00 01 5E 
22:20:17:3048 Rx 1 0x205 s 5 00 00 00 00 00 
22:20:17:3108 Rx 1 0x121 s 6 50 FF E6 FF 3D FC 
22:20:17:3110 Rx 1 0x132 s 6 E4 00 F5 F8 83 CD 
22:20:17:3160 Rx 1 0x205 s 5 00 00 00 00 00 
22:20:17:3162 Rx 1 0x205 s 5 00 00 00 00 00 
22:20:17:3375 Rx 1 0x5FE s 8 00 00 00 00 00 00 01 5E 
22:20:17:3509 Rx 1 0x121 s 6 52 FF E7 FF 3D FC 
22:20:17:3511 Rx 1 0x132 s 6 E4 00 F5 F8 87 CD 
22:20:17:3550 Rx 1 0x205 s 5 00 00 00 00 00 
22:20:17:3577 Rx 1 0x5FD s 8 00 00 00 00 00 00 00 00 
22:20:17:3776 Rx 1 0x205 s 5 00 00 00 00 00 
22:20:17:3908 Rx 1 0x121 s 6 50 FF E8 FF 3F FC 
22:20:17:3910 Rx 1 0x132 s 6 E4 00 F5 F8 8A CD 
22:20:17:3978 Rx 1 0x5FE s 8 00 00 00 00 00 00 01 5E 
22:20:17:3990 Rx 1 0x205 s 5 00 00 00 00 00 
22:20:17:4052 Rx 1 0x205 s 5 00 00 00 00 00 
22:20:17:4180 Rx 1 0x205 s 5 00 00 00 00 00 
22:20:17:4279 Rx 1 0x625 s 8 00 00 00 00 00 00 00 00 
22:20:17:4282 Rx 1 0x5FE s 8 00 00 00 00 00 00 01 5E 
22:20:17:4308 Rx 1 0x121 s 6 51 FF E5 FF 3D FC 
22:20:17:4310 Rx 1 0x132 s 6 E4 00 F5 F8 8E CD 
22:20:17:4313 Rx 1 0x175 s 8 00 00 00 00 00 00 00 00 
22:20:17:4382 Rx 1 0x205 s 5 00 00 00 00 00 
22:20:17:4556 Rx 1 0x5F1 s 8 00 00 00 00 93 93 01 01 
22:20:17:4586 Rx 1 0x5F2 s 8 03 F2 00 00 FF FF FF FF 
22:20:17:4708 Rx 1 0x121 s 6 52 FF E6 FF 3C FC 
22:20:17:4710 Rx 1 0x132 s 6 E4 00 F5 F8 91 CD 
22:20:17:4788 Rx 1 0x205 s 5 00 00 00 00 00 
22:20:17:4989 Rx 1 0x5FE s 8 00 00 00 00 00 00 01 5E 
22:20:17:5060 Rx 1 0x205 s 5 00 00 00 00 00 
22:20:17:5108 Rx 1 0x121 s 6 51 FF E7 FF 3E FC 
22:20:17:5113 Rx 1 0x132 s 6 E4 00 F5 F8 95 CD 
22:20:17:5163 Rx 1 0x205 s 5 00 00 00 00 00 
22:20:17:5189 Rx 1 0x205 s 5 00 00 00 00 00 
22:20:17:5393 Rx 1 0x5FE s 8 00 00 00 00 00 00 01 5E 
22:20:17:5509 Rx 1 0x121 s 6 50 FF E5 FF 3E FC 
22:20:17:5526 Rx 1 0x132 s 6 E4 00 F5 F8 98 CD 
22:20:17:5563 Rx 1 0x5FD s 8 00 00 00 00 00 00 00 00 
22:20:17:5595 Rx 1 0x205 s 5 00 00 00 00 00 
22:20:17:5794 Rx 1 0x205 s 5 00 00 00 00 00 
22:20:17:5910 Rx 1 0x121 s 6 52 FF E8 FF 3D FC 
22:20:17:5920 Rx 1 0x132 s 6 E4 00 F5 F8 9C CD 
22:20:17:5992 Rx 1 0x5FE s 8 00 00 00 00 00 00 01 5E 
22:20:17:5995 Rx 1 0x205 s 5 00 00 00 00 00 
22:20:17:6065 Rx 1 0x205 s 5 00 00 00 00 00 
22:20:17:6200 Rx 1 0x625 s 8 00 00 00 00 00 00 00 00 
22:20:17:6219 Rx 1 0x205 s 5 00 00 00 00 00 
22:20:17:6286 Rx 1 0x5FE s 8 00 00 00 00 00 00 01 5E 
22:20:17:6297 Rx 1 0x205 s 5 00 00 00 00 00 
22:20:17:6309 Rx 1 0x121 s 6 50 FF E5 FF 3E FC 
22:20:17:6312 Rx 1 0x132 s 6 E4 00 F5 F8 A0 CD 
22:20:17:6316 Rx 1 0x175 s 8 00 00 00 00 00 00 00 00 
22:20:17:6403 Rx 1 0x5FF s 8 02 BC FF F6 00 00 FF A6 
22:20:17:6568 Rx 1 0x5F1 s 8 00 00 00 00 93 93 01 01 
22:20:17:6634 Rx 1 0x5F2 s 8 03 F2 00 00 FF FF FF FF 
22:20:17:6708 Rx 1 0x121 s 6 52 FF E5 FF 3C FC 
22:20:17:6789 Rx 1 0x132 s 6 E4 00 F5 F8 A3 CD 
22:20:17:6854 Rx 1 0x205 s 5 00 00 00 00 00 
22:20:17:7008 Rx 1 0x5FE s 8 00 00 00 00 00 00 01 5E 
22:20:17:7069 Rx 1 0x205 s 5 00 00 00 00 00 
22:20:17:7109 Rx 1 0x121 s 6 51 FF E6 FF 3D FC 
22:20:17:7122 Rx 1 0x132 s 6 E4 00 F5 F8 A7 CD 
22:20:17:7167 Rx 1 0x205 s 5 00 00 00 00 00 
22:20:17:7208 Rx 1 0x205 s 5 00 00 00 00 00 
22:20:17:7412 Rx 1 0x5FE s 8 00 00 00 00 00 00 01 5E 
22:20:17:7510 Rx 1 0x121 s 6 50 FF E6 FF 3E FC 
22:20:17:7526 Rx 1 0x132 s 6 E4 00 F6 F8 AA CD 
22:20:17:7572 Rx 1 0x5FD s 8 00 00 00 00 00 00 00 00 
22:20:17:7615 Rx 1 0x205 s 5 00 00 00 00 00 
22:20:17:7814 Rx 1 0x205 s 5 00 00 00 00 00 
22:20:17:7910 Rx 1 0x121 s 6 4F FF E7 FF 3D FC 
22:20:17:7930 Rx 1 0x132 s 6 E4 00 F6 F8 AE CD 
22:20:17:7993 Rx 1 0x5FE s 8 00 00 00 00 00 00 01 5E 
22:20:17:8018 Rx 1 0x205 s 5 00 00 00 00 00 
22:20:17:8074 Rx 1 0x205 s 5 00 00 00 00 00 
22:20:17:8219 Rx 1 0x625 s 8 00 00 00 00 00 00 00 00 
22:20:17:8284 Rx 1 0x205 s 5 00 00 00 00 00 
22:20:17:8316 Rx 1 0x5FE s 8 00 00 00 00 00 00 01 5E 
22:20:17:8320 Rx 1 0x121 s 6 50 FF E6 FF 3D FC 
22:20:17:8324 Rx 1 0x132 s 6 E4 00 F6 F8 B1 CD 
22:20:17:8327 Rx 1 0x175 s 8 00 00 00 00 00 00 00 00 
22:20:17:8422 Rx 1 0x205 s 5 00 00 00 00 00 
22:20:17:8578 Rx 1 0x5F1 s 8 00 00 00 00 93 93 01 01 
22:20:17:8625 Rx 1 0x5F2 s 8 03 F2 00 00 FF FF FF FF 
22:20:17:8640 Rx 1 0x205 s 5 00 00 00 00 00 
22:20:17:8643 Rx 1 0x5FE s 8 00 00 00 00 00 00 01 5E 
22:20:17:8709 Rx 1 0x121 s 6 50 FF E6 FF 3D FC 
22:20:17:8713 Rx 1 0x132 s 6 E4 00 F6 F8 B4 CD 
22:20:17:8827 Rx 1 0x205 s 5 00 00 00 00 00 
22:20:17:9026 Rx 1 0x200 s 0 
22:20:17:9080 Rx 1 0x201 s 8 00 00 0F 00 14 14 00 00 
22:20:17:9108 Rx 1 0x121 s 6 50 FF E6 FF 3E FC 
22:20:17:9110 Rx 1 0x132 s 6 E4 00 F6 F8 B8 CD 
22:20:17:9171 Rx 1 0x205 s 5 00 00 00 00 00 
22:20:17:9226 Rx 1 0x205 s 5 00 00 00 00 00 
22:20:17:9428 Rx 1 0x5FE s 8 00 00 00 00 00 00 01 5E 
22:20:17:9509 Rx 1 0x121 s 6 50 FF E6 FF 3E FC 
22:20:17:9513 Rx 1 0x132 s 6 E4 00 F6 F8 BC CD 
22:20:17:9583 Rx 1 0x5FD s 8 00 00 00 00 00 00 00 00 
22:20:17:9629 Rx 1 0x205 s 5 00 00 00 00 00 
22:20:17:9829 Rx 1 0x205 s 5 00 00 00 00 00 
22:20:17:9909 Rx 1 0x121 s 6 51 FF E7 FF 3D FC 
22:20:17:9918 Rx 1 0x132 s 6 E4 00 F6 F8 BF CD 
22:20:17:9996 Rx 1 0x5FE s 8 00 00 00 00 00 00 01 5E 
22:20:18:0029 Rx 1 0x205 s 5 00 00 00 00 00 
22:20:18:0084 Rx 1 0x205 s 5 00 00 00 00 00 
22:20:18:0229 Rx 1 0x625 s 8 00 00 00 00 00 00 00 00 
22:20:18:0285 Rx 1 0x205 s 5 00 00 00 00 00 
22:20:18:0288 Rx 1 0x5FE s 8 00 00 00 00 00 00 01 5E 
22:20:18:0309 Rx 1 0x121 s 6 4F FF E7 FF 3E FC 
22:20:18:0310 Rx 1 0x132 s 6 E4 00 F6 F8 C3 CD 
22:20:18:0313 Rx 1 0x175 s 8 00 00 00 00 00 00 00 00 
22:20:18:0431 Rx 1 0x205 s 5 00 00 00 00 00 
22:20:18:0586 Rx 1 0x5F1 s 8 00 00 00 00 93 93 01 01 
22:20:18:0633 Rx 1 0x5F2 s 8 03 F2 00 00 FF FF FF FF 
22:20:18:0708 Rx 1 0x121 s 6 51 FF E6 FF 3E FC 
22:20:18:0718 Rx 1 0x132 s 6 E4 00 F6 F8 C6 CD 
22:20:18:0836 Rx 1 0x205 s 5 00 00 00 00 00 
22:20:18:1036 Rx 1 0x5FE s 8 00 00 00 00 00 00 01 5E 
22:20:18:1088 Rx 1 0x205 s 5 00 00 00 00 00 
22:20:18:1109 Rx 1 0x121 s 6 50 FF E4 FF 3D FC 
22:20:18:1114 Rx 1 0x132 s 6 E4 00 F6 F8 CA CD 
22:20:18:1173 Rx 1 0x205 s 5 00 00 00 00 00 
22:20:18:1222 Rx 1 0x205 s 5 00 00 00 00 00 
22:20:18:1236 Rx 1 0x5FE s 8 00 00 00 00 00 00 01 5E 
22:20:18:1436 Rx 1 0x5FD s 8 00 00 00 00 00 00 00 00 
22:20:18:1509 Rx 1 0x121 s 6 4F FF E7 FF 3D FC 
22:20:18:1513 Rx 1 0x132 s 6 E4 00 F6 F8 CD CD 
22:20:18:1589 Rx 1 0x5FF s 8 02 BC FF F6 00 00 FF A6 
22:20:18:1636 Rx 1 0x205 s 5 00 00 00 00 00 
22:20:18:1836 Rx 1 0x205 s 5 00 00 00 00 00 
22:20:18:1909 Rx 1 0x121 s 6 50 FF E6 FF 3D FC 
22:20:18:1912 Rx 1 0x132 s 6 E4 00 F6 F8 D0 CD 
22:20:18:1998 Rx 1 0x5FE s 8 00 00 00 00 00 00 01 5E 
22:20:18:2037 Rx 1 0x205 s 5 00 00 00 00 00 
22:20:18:2093 Rx 1 0x205 s 5 00 00 00 00 00 
22:20:18:2237 Rx 1 0x625 s 8 00 00 00 00 00 00 00 00 
22:20:18:2287 Rx 1 0x205 s 5 00 00 00 00 00 
22:20:18:2290 Rx 1 0x5FE s 8 00 00 00 00 00 00 01 5E 
22:20:18:2309 Rx 1 0x121 s 6 50 FF E7 FF 3D FC 
22:20:18:2310 Rx 1 0x132 s 6 E4 00 F6 F8 D4 CD 
22:20:18:2313 Rx 1 0x175 s 8 00 00 00 00 00 00 00 00 
22:20:18:2439 Rx 1 0x205 s 5 00 00 00 00 00 
22:20:18:2596 Rx 1 0x5F1 s 8 00 00 00 00 93 93 01 01 
22:20:18:2642 Rx 1 0x5F2 s 8 03 F2 00 00 FF FF FF FF 
22:20:18:2708 Rx 1 0x121 s 6 50 FF E6 FF 3D FC 
22:20:18:2712 Rx 1 0x132 s 6 E4 00 F6 F8 D8 CD 
22:20:18:2846 Rx 1 0x205 s 5 00 00 00 00 00 
22:20:18:3046 Rx 1 0x5FE s 8 00 00 00 00 00 00 01 5E 
22:20:18:3097 Rx 1 0x205 s 5 00 00 00 00 00 
22:20:18:3108 Rx 1 0x121 s 6 50 FF E7 FF 3D FC 
22:20:18:3110 Rx 1 0x132 s 6 E4 00 F6 F8 DB CD 
22:20:18:3174 Rx 1 0x205 s 5 00 00 00 00 00 
22:20:18:3246 Rx 1 0x205 s 5 00 00 00 00 00 
22:20:18:3447 Rx 1 0x5FE s 8 00 00 00 00 00 00 01 5E 
22:20:18:3509 Rx 1 0x121 s 6 50 FF E7 FF 3C FC 
22:20:18:3513 Rx 1 0x132 s 6 E4 00 F6 F8 DE CD 
22:20:18:3602 Rx 1 0x5FD s 8 00 00 00 00 00 00 00 00 
22:20:18:3649 Rx 1 0x205 s 5 00 00 00 00 00 
22:20:18:3852 Rx 1 0x205 s 5 00 00 00 00 00 
22:20:18:3908 Rx 1 0x121 s 6 50 FF E6 FF 3E FC 
22:20:18:3918 Rx 1 0x132 s 6 E4 00 F6 F8 E2 CD 
22:20:18:3999 Rx 1 0x5FE s 8 00 00 00 00 00 00 01 5E 
22:20:18:4055 Rx 1 0x205 s 5 00 00 00 00 00 
22:20:18:4105 Rx 1 0x205 s 5 00 00 00 00 00 
22:20:18:4255 Rx 1 0x625 s 8 00 00 00 00 00 00 00 00 
22:20:18:4288 Rx 1 0x205 s 5 00 00 00 00 00 
22:20:18:4293 Rx 1 0x5FE s 8 00 00 00 00 00 00 01 5E 
22:20:18:4309 Rx 1 0x121 s 6 52 FF E6 FF 3D FC 
22:20:18:4316 Rx 1 0x132 s 6 E4 00 F6 F8 E6 CD 
22:20:18:4318 Rx 1 0x175 s 8 00 00 00 00 00 00 00 00 
22:20:18:4457 Rx 1 0x205 s 5 00 00 00 00 00 
22:20:18:4607 Rx 1 0x5F1 s 8 00 00 00 00 93 93 01 01 
22:20:18:4658 Rx 1 0x5F2 s 8 03 F2 00 00 FF FF FF FF 
22:20:18:4709 Rx 1 0x121 s 6 51 FF E6 FF 3D FC 
22:20:18:4712 Rx 1 0x132 s 6 E4 00 F7 F8 E9 CD 
22:20:18:4862 Rx 1 0x205 s 5 00 00 00 00 00 
22:20:18:5062 Rx 1 0x5FE s 8 00 00 00 00 00 00 01 5E 
22:20:18:5109 Rx 1 0x121 s 6 50 FF E7 FF 3D FC 
22:20:18:5114 Rx 1 0x132 s 6 E4 00 F6 F8 ED CD 
22:20:18:5115 Rx 1 0x205 s 5 00 00 00 00 00 
22:20:18:5177 Rx 1 0x205 s 5 00 00 00 00 00 
22:20:18:5268 Rx 1 0x205 s 5 00 00 00 00 00 
22:20:18:5469 Rx 1 0x5FE s 8 00 00 00 00 00 00 01 5E 
22:20:18:5509 Rx 1 0x121 s 6 50 FF E7 FF 3D FC 
22:20:18:5513 Rx 1 0x132 s 6 E3 00 F7 F8 F0 CD 
22:20:18:5618 Rx 1 0x5FD s 8 00 00 00 00 00 00 00 00 
22:20:18:5668 Rx 1 0x205 s 5 00 00 00 00 00 
22:20:18:5868 Rx 1 0x205 s 5 00 00 00 00 00 
22:20:18:5908 Rx 1 0x121 s 6 51 FF E7 FF 3E FC 
22:20:18:5911 Rx 1 0x132 s 6 E3 00 F7 F8 F4 CD 
22:20:18:5999 Rx 1 0x5FE s 8 00 00 00 00 00 00 01 5E 
22:20:18:6069 Rx 1 0x205 s 5 00 00 00 00 00 
22:20:18:6119 Rx 1 0x205 s 5 00 00 00 00 00 
22:20:18:6223 Rx 1 0x625 s 8 00 00 00 00 00 00 00 00 
22:20:18:6270 Rx 1 0x205 s 5 00 00 00 00 00 
22:20:18:6292 Rx 1 0x5FE s 8 00 00 00 00 00 00 01 5E 
22:20:18:6294 Rx 1 0x5FF s 8 02 BC FF F6 00 00 FF A6 
22:20:18:6308 Rx 1 0x121 s 6 51 FF E7 FF 3D FC 
22:20:18:6310 Rx 1 0x132 s 6 E4 00 F7 F8 F7 CD 
22:20:18:6313 Rx 1 0x175 s 8 00 00 00 00 00 00 00 00 
22:20:18:6471 Rx 1 0x205 s 5 00 00 00 00 00 
22:20:18:6621 Rx 1 0x5F1 s 8 00 00 00 00 93 93 01 01 
22:20:18:6674 Rx 1 0x5F2 s 8 03 F2 00 00 FF FF FF FF 
22:20:18:6708 Rx 1 0x121 s 6 50 FF E7 FF 3D FC 
22:20:18:6710 Rx 1 0x132 s 6 E3 00 F7 F8 FB CD 
22:20:18:6877 Rx 1 0x205 s 5 00 00 00 00 00 
22:20:18:7078 Rx 1 0x5FE s 8 00 00 00 00 00 00 01 5E 
22:20:18:7109 Rx 1 0x121 s 6 50 FF E6 FF 3E FC 
22:20:18:7114 Rx 1 0x132 s 6 E4 00 F7 F8 FE CD 
22:20:18:7124 Rx 1 0x205 s 5 00 00 00 00 00 
22:20:18:7177 Rx 1 0x205 s 5 00 00 00 00 00 
22:20:18:7281 Rx 1 0x205 s 5 00 00 00 00 00 
22:20:18:7484 Rx 1 0x5FE s 8 00 00 00 00 00 00 01 5E 
22:20:18:7508 Rx 1 0x121 s 6 52 FF E6 FF 3D FC 
22:20:18:7510 Rx 1 0x132 s 6 E4 00 F7 F8 02 CE 
22:20:18:7628 Rx 1 0x5FD s 8 00 00 00 00 00 00 00 00 
22:20:18:7685 Rx 1 0x205 s 5 00 00 00 00 00 
22:20:18:7889 Rx 1 0x205 s 5 00 00 00 00 00 
22:20:18:7908 Rx 1 0x121 s 6 50 FF E7 FF 3D FC 
22:20:18:7911 Rx 1 0x132 s 6 E4 00 F7 F8 05 CE 
22:20:18:7999 Rx 1 0x5FE s 8 00 00 00 00 00 00 01 5E 
22:20:18:8091 Rx 1 0x205 s 5 00 00 00 00 00 
22:20:18:8131 Rx 1 0x205 s 5 00 00 00 00 00 
22:20:18:8293 Rx 1 0x625 s 8 00 00 00 00 00 00 00 00 
22:20:18:8295 Rx 1 0x205 s 5 00 00 00 00 00 
22:20:18:8298 Rx 1 0x5FE s 8 00 00 00 00 00 00 01 5E 
22:20:18:8308 Rx 1 0x121 s 6 50 FF E7 FF 3E FC 
22:20:18:8310 Rx 1 0x132 s 6 E3 00 F7 F8 09 CE 
22:20:18:8313 Rx 1 0x175 s 8 00 00 00 00 00 00 00 00 
22:20:18:8493 Rx 1 0x205 s 5 00 00 00 00 00 
22:20:18:8632 Rx 1 0x5F1 s 8 00 00 00 00 93 93 01 01 
22:20:18:8697 Rx 1 0x5F2 s 8 03 F2 00 00 FF FF FF FF 
22:20:18:8708 Rx 1 0x121 s 6 50 FF E6 FF 3D FC 
22:20:18:8710 Rx 1 0x132 s 6 E3 00 F7 F8 0C CE 
22:20:18:8899 Rx 1 0x205 s 5 00 00 00 00 00 
22:20:18:9100 Rx 1 0x5FE s 8 00 00 00 00 00 00 01 5E 
22:20:18:9108 Rx 1 0x121 s 6 51 FF E7 FF 3E FC 
22:20:18:9110 Rx 1 0x132 s 6 E3 00 F7 F8 10 CE 
22:20:18:9134 Rx 1 0x205 s 5 00 00 00 00 00 
22:20:18:9179 Rx 1 0x205 s 5 00 00 00 00 00 
22:20:18:9304 Rx 1 0x205 s 5 00 00 00 00 00 
22:20:18:9506 Rx 1 0x5FE s 8 00 00 00 00 00 00 01 5E 
22:20:18:9508 Rx 1 0x121 s 6 50 FF E6 FF 3D FC 
22:20:18:9510 Rx 1 0x132 s 6 E3 00 F7 F8 13 CE 
22:20:18:9638 Rx 1 0x5FD s 8 00 00 00 00 00 00 00 00 
22:20:18:9708 Rx 1 0x205 s 5 00 00 00 00 00 
22:20:18:9908 Rx 1 0x121 s 6 50 FF E5 FF 3E FC 
22:20:18:9910 Rx 1 0x132 s 6 E3 00 F7 F8 17 CE 
22:20:18:9912 Rx 1 0x205 s 5 00 00 00 00 00 
22:20:19:0002 Rx 1 0x5FE s 8 00 00 00 00 00 00 01 5E 
22:20:19:0113 Rx 1 0x205 s 5 00 00 00 00 00 
22:20:19:0142 Rx 1 0x205 s 5 00 00 00 00 00 
22:20:19:0295 Rx 1 0x625 s 8 00 00 00 00 00 00 00 00 
22:20:19:0297 Rx 1 0x205 s 5 00 00 00 00 00 
22:20:19:0308 Rx 1 0x121 s 6 52 FF E7 FF 3D FC 
22:20:19:0310 Rx 1 0x132 s 6 E3 00 F7 F8 1B CE 
22:20:19:0312 Rx 1 0x175 s 8 00 00 00 00 00 00 00 00 
22:20:19:0315 Rx 1 0x5FE s 8 00 00 00 00 00 00 01 5E 
22:20:19:0514 Rx 1 0x5F1 s 8 00 00 00 00 93 93 01 01 
22:20:19:0643 Rx 1 0x5F2 s 8 03 F2 00 00 FF FF FF FF 
22:20:19:0708 Rx 1 0x121 s 6 50 FF E6 FF 3D FC 
22:20:19:0710 Rx 1 0x132 s 6 E4 00 F7 F8 1E CE 
22:20:19:0713 Rx 1 0x205 s 5 00 00 00 00 00 
22:20:19:0916 Rx 1 0x205 s 5 00 00 00 00 00 
22:20:19:1108 Rx 1 0x121 s 6 50 FF E7 FF 3D FC 
22:20:19:1110 Rx 1 0x132 s 6 E3 00 F7 F8 22 CE 
22:20:19:1116 Rx 1 0x5FE s 8 00 00 00 00 00 00 01 5E 
22:20:19:1145 Rx 1 0x205 s 5 00 00 00 00 00 
22:20:19:1182 Rx 1 0x205 s 5 00 00 00 00 00 
22:20:19:1225 Rx 1 0x205 s 5 00 00 00 00 00 
22:20:19:1319 Rx 1 0x5FE s 8 00 00 00 00 00 00 01 5E 
22:20:19:1508 Rx 1 0x121 s 6 51 FF E5 FF 3D FC 
22:20:19:1511 Rx 1 0x132 s 6 E3 00 F7 F8 25 CE 
22:20:19:1524 Rx 1 0x5FD s 8 00 00 00 00 00 00 00 00 
22:20:19:1649 Rx 1 0x5FF s 8 02 BC FF F6 00 00 FF A6 
22:20:19:1723 Rx 1 0x205 s 5 00 00 00 00 00 
22:20:19:1908 Rx 1 0x121 s 6 50 FF E6 FF 3F FC 
22:20:19:1910 Rx 1 0x132 s 6 E3 00 F7 F8 29 CE 
22:20:19:1922 Rx 1 0x205 s 5 00 00 00 00 00 
22:20:19:2004 Rx 1 0x5FE s 8 00 00 00 00 00 00 01 5E 
22:20:19:2124 Rx 1 0x205 s 5 00 00 00 00 00 
22:20:19:2151 Rx 1 0x205 s 5 00 00 00 00 00 
22:20:19:2295 Rx 1 0x625 s 8 00 00 00 00 00 00 00 00 
22:20:19:2297 Rx 1 0x205 s 5 00 00 00 00 00 
22:20:19:2308 Rx 1 0x121 s 6 51 FF E5 FF 3D FC 
22:20:19:2310 Rx 1 0x132 s 6 E4 00 F7 F8 2C CE 
22:20:19:2312 Rx 1 0x175 s 8 00 00 00 00 00 00 00 00 
22:20:19:2326 Rx 1 0x5FE s 8 00 00 00 00 00 00 01 5E 
22:20:19:2530 Rx 1 0x5F1 s 8 00 00 00 00 93 93 01 01 
22:20:19:2654 Rx 1 0x5F2 s 8 03 F2 00 00 FF FF FF FF 
22:20:19:2708 Rx 1 0x121 s 6 50 FF E5 FF 3D FC 
22:20:19:2792 Rx 1 0x132 s 6 E4 00 F7 F8 30 CE 
22:20:19:2795 Rx 1 0x205 s 5 00 00 00 00 00 
22:20:19:2931 Rx 1 0x205 s 5 00 00 00 00 00 
22:20:19:3109 Rx 1 0x121 s 6 51 FF E6 FF 3C FC 
22:20:19:3111 Rx 1 0x132 s 6 E4 00 F7 F8 33 CE 
22:20:19:3133 Rx 1 0x5FE s 8 00 00 00 00 00 00 01 5E 
22:20:19:3157 Rx 1 0x205 s 5 00 00 00 00 00 
22:20:19:3186 Rx 1 0x205 s 5 00 00 00 00 00 
22:20:19:3333 Rx 1 0x205 s 5 00 00 00 00 00 
22:20:19:3508 Rx 1 0x121 s 6 4F FF E7 FF 3E FC 
22:20:19:3510 Rx 1 0x132 s 6 E4 00 F7 F8 36 CE 
22:20:19:3537 Rx 1 0x5FE s 8 00 00 00 00 00 00 01 5E 
22:20:19:3659 Rx 1 0x5FD s 8 00 00 00 00 00 00 00 00 
22:20:19:3738 Rx 1 0x205 s 5 00 00 00 00 00 
22:20:19:3908 Rx 1 0x121 s 6 50 FF E5 FF 3E FC 
22:20:19:3911 Rx 1 0x132 s 6 E4 00 F7 F8 3A CE 
22:20:19:3941 Rx 1 0x205 s 5 00 00 00 00 00 
22:20:19:4005 Rx 1 0x5FE s 8 00 00 00 00 00 00 01 5E 
22:20:19:4143 Rx 1 0x205 s 5 00 00 00 00 00 
22:20:19:4160 Rx 1 0x205 s 5 00 00 00 00 00 
22:20:19:4297 Rx 1 0x625 s 8 00 00 00 00 00 00 00 00 
22:20:19:4299 Rx 1 0x205 s 5 00 00 00 00 00 
22:20:19:4308 Rx 1 0x121 s 6 51 FF E7 FF 3E FC 
22:20:19:4310 Rx 1 0x132 s 6 E4 00 F7 F8 3E CE 
22:20:19:4313 Rx 1 0x175 s 8 00 00 00 00 00 00 00 00 
22:20:19:4345 Rx 1 0x5FE s 8 00 00 00 00 00 00 01 5E 
22:20:19:4548 Rx 1 0x5F1 s 8 00 00 00 00 93 93 01 01 
22:20:19:4664 Rx 1 0x5F2 s 8 03 F2 00 00 FF FF FF FF 
22:20:19:4708 Rx 1 0x121 s 6 4E FF E6 FF 3D FC 
22:20:19:4710 Rx 1 0x132 s 6 E4 00 F7 F8 41 CE 
22:20:19:4749 Rx 1 0x205 s 5 00 00 00 00 00 
22:20:19:4948 Rx 1 0x205 s 5 00 00 00 00 00 
22:20:19:5108 Rx 1 0x121 s 6 51 FF E7 FF 3E FC 
22:20:19:5112 Rx 1 0x132 s 6 E4 00 F7 F8 45 CE 
22:20:19:5151 Rx 1 0x5FE s 8 00 00 00 00 00 00 01 5E 
22:20:19:5168 Rx 1 0x205 s 5 00 00 00 00 00 
22:20:19:5189 Rx 1 0x205 s 5 00 00 00 00 00 
22:20:19:5366 Rx 1 0x205 s 5 00 00 00 00 00 
22:20:19:5509 Rx 1 0x121 s 6 4F FF E4 FF 3C FC 
22:20:19:5511 Rx 1 0x132 s 6 E4 00 F7 F8 48 CE 
22:20:19:5567 Rx 1 0x5FE s 8 00 00 00 00 00 00 01 5E 
22:20:19:5671 Rx 1 0x5FD s 8 00 00 00 00 00 00 00 00 
22:20:19:5768 Rx 1 0x205 s 5 00 00 00 00 00 
22:20:19:5908 Rx 1 0x121 s 6 51 FF E8 FF 3D FC 
22:20:19:5910 Rx 1 0x132 s 6 E4 00 F7 F8 4C CE 
22:20:19:5970 Rx 1 0x205 s 5 00 00 00 00 00 
22:20:19:6006 Rx 1 0x5FE s 8 00 00 00 00 00 00 01 5E 
22:20:19:6172 Rx 1 0x205 s 5 00 00 00 00 00 
22:20:19:6174 Rx 1 0x205 s 5 00 00 00 00 00 
22:20:19:6229 Rx 1 0x625 s 8 00 00 00 00 00 00 00 00 
22:20:19:6299 Rx 1 0x205 s 5 00 00 00 00 00 
22:20:19:6303 Rx 1 0x5FE s 8 00 00 00 00 00 00 01 5E 
22:20:19:6308 Rx 1 0x121 s 6 50 FF E6 FF 3E FC 
22:20:19:6310 Rx 1 0x132 s 6 E4 00 F7 F8 4F CE 
22:20:19:6313 Rx 1 0x175 s 8 00 00 00 00 00 00 00 00 
22:20:19:6376 Rx 1 0x5FF s 8 02 BC FF F6 00 00 FF A6 
22:20:19:6579 Rx 1 0x5F1 s 8 00 00 00 00 93 93 01 01 
22:20:19:6678 Rx 1 0x5F2 s 8 03 F2 00 00 FF FF FF FF 
22:20:19:6708 Rx 1 0x121 s 6 51 FF E6 FF 3D FC 
22:20:19:6710 Rx 1 0x132 s 6 E4 00 F7 F8 53 CE 
22:20:19:6779 Rx 1 0x205 s 5 00 00 00 00 00 
22:20:19:6979 Rx 1 0x205 s 5 00 00 00 00 00 
22:20:19:7108 Rx 1 0x121 s 6 4F FF E9 FF 3E FC 
22:20:19:7110 Rx 1 0x132 s 6 E4 00 F7 F8 56 CE 
22:20:19:7180 Rx 1 0x5FE s 8 00 00 00 00 00 00 01 5E 
22:20:19:7182 Rx 1 0x205 s 5 00 00 00 00 00 
22:20:19:7192 Rx 1 0x205 s 5 00 00 00 00 00 
22:20:19:7380 Rx 1 0x205 s 5 00 00 00 00 00 
22:20:19:7509 Rx 1 0x121 s 6 50 FF E5 FF 3D FC 
22:20:19:7510 Rx 1 0x132 s 6 E5 00 F7 F8 5A CE 
22:20:19:7581 Rx 1 0x5FE s 8 00 00 00 00 00 00 01 5E 
22:20:19:7686 Rx 1 0x5FD s 8 00 00 00 00 00 00 00 00 
22:20:19:7781 Rx 1 0x205 s 5 00 00 00 00 00 
22:20:19:7908 Rx 1 0x121 s 6 51 FF E6 FF 3D FC 
22:20:19:7910 Rx 1 0x132 s 6 E5 00 F7 F8 5D CE 
22:20:19:7983 Rx 1 0x205 s 5 00 00 00 00 00 
22:20:19:8005 Rx 1 0x5FE s 8 00 00 00 00 00 00 01 5E 
22:20:19:8186 Rx 1 0x205 s 5 00 00 00 00 00 
22:20:19:8188 Rx 1 0x205 s 5 00 00 00 00 00 
22:20:19:8302 Rx 1 0x625 s 8 00 00 00 00 00 00 00 00 
22:20:19:8303 Rx 1 0x205 s 5 00 00 00 00 00 
22:20:19:8308 Rx 1 0x121 s 6 51 FF E7 FF 3E FC 
22:20:19:8310 Rx 1 0x132 s 6 E5 00 F7 F8 61 CE 
22:20:19:8313 Rx 1 0x175 s 8 00 00 00 00 00 00 00 00 
22:20:19:8390 Rx 1 0x5FE s 8 00 00 00 00 00 00 01 5E 
22:20:19:8593 Rx 1 0x5F1 s 8 00 00 00 00 93 93 01 01 
22:20:19:8702 Rx 1 0x5F2 s 8 03 F2 00 00 FF FF FF FF 
22:20:19:8708 Rx 1 0x121 s 6 51 FF E7 FF 3D FC 
22:20:19:8710 Rx 1 0x132 s 6 E5 00 F7 F8 65 CE 
22:20:19:8794 Rx 1 0x205 s 5 00 00 00 00 00 
22:20:19:8993 Rx 1 0x205 s 5 00 00 00 00 00 
22:20:19:8999 Rx 1 0x5FE s 8 00 00 00 00 00 00 01 5E 
22:20:19:9001 Rx 1 0x205 s 5 00 00 00 00 00 
22:20:19:9108 Rx 1 0x121 s 6 51 FF E5 FF 3D FC 
22:20:19:9110 Rx 1 0x132 s 6 E5 00 F7 F8 68 CE 
22:20:19:9191 Rx 1 0x205 s 5 00 00 00 00 00 
22:20:19:9194 Rx 1 0x200 s 0 
22:20:19:9202 Rx 1 0x201 s 8 00 00 0F 00 14 14 00 00 
22:20:19:9395 Rx 1 0x5FD s 8 00 00 00 00 00 00 00 00 
22:20:19:9508 Rx 1 0x121 s 6 50 FF E6 FF 3D FC 
22:20:19:9510 Rx 1 0x132 s 6 E5 00 F7 F8 6C CE 
22:20:19:9595 Rx 1 0x205 s 5 00 00 00 00 00 
22:20:19:9705 Rx 1 0x5FE s 8 00 00 00 00 00 00 01 5E 
22:20:19:9796 Rx 1 0x205 s 5 00 00 00 00 00 
22:20:19:9908 Rx 1 0x121 s 6 51 FF E6 FF 3D FC 
22:20:19:9910 Rx 1 0x132 s 6 E5 00 F7 F8 70 CE 
22:20:19:9998 Rx 1 0x205 s 5 00 00 00 00 00 
22:20:20:0020 Rx 1 0x5FE s 8 00 00 00 00 00 00 01 5E 
22:20:20:0202 Rx 1 0x205 s 5 00 00 00 00 00 
22:20:20:0208 Rx 1 0x205 s 5 00 00 00 00 00 
22:20:20:0302 Rx 1 0x625 s 8 00 00 00 00 00 00 00 00 
22:20:20:0304 Rx 1 0x205 s 5 00 00 00 00 00 
22:20:20:0308 Rx 1 0x121 s 6 51 FF E6 FF 3E FC 
22:20:20:0310 Rx 1 0x132 s 6 E5 00 F7 F8 73 CE 
22:20:20:0312 Rx 1 0x175 s 8 00 00 00 00 00 00 00 00 
22:20:20:0404 Rx 1 0x5FE s 8 00 00 00 00 00 00 01 5E 
22:20:20:0607 Rx 1 0x5F1 s 8 00 00 00 00 93 93 01 01 
22:20:20:0708 Rx 1 0x121 s 6 51 FF E6 FF 3D FC 
22:20:20:0710 Rx 1 0x132 s 6 E5 00 F7 F8 77 CE 
22:20:20:0712 Rx 1 0x5F2 s 8 03 F2 00 00 FF FF FF FF 
22:20:20:0807 Rx 1 0x205 s 5 00 00 00 00 00 
22:20:20:1008 Rx 1 0x205 s 5 00 00 00 00 00 
22:20:20:1108 Rx 1 0x121 s 6 50 FF E5 FF 3E FC 
22:20:20:1110 Rx 1 0x132 s 6 E5 00 F7 F8 7A CE 
22:20:20:1194 Rx 1 0x5FE s 8 00 00 00 00 00 00 01 5E 
22:20:20:1207 Rx 1 0x205 s 5 00 00 00 00 00 
22:20:20:1214 Rx 1 0x205 s 5 00 00 00 00 00 
22:20:20:1231 Rx 1 0x5FD s 8 00 00 00 00 00 00 00 00 
22:20:20:1409 Rx 1 0x205 s 5 00 00 00 00 00 
22:20:20:1508 Rx 1 0x121 s 6 52 FF E8 FF 3D FC 
22:20:20:1510 Rx 1 0x132 s 6 E5 00 F7 F8 7E CE 
22:20:20:1610 Rx 1 0x5FE s 8 00 00 00 00 00 00 01 5E 
22:20:20:1716 Rx 1 0x5FF s 8 02 BC FF F6 00 00 FF A6 
22:20:20:1812 Rx 1 0x205 s 5 00 00 00 00 00 
22:20:20:1908 Rx 1 0x121 s 6 51 FF E8 FF 3D FC 
22:20:20:1910 Rx 1 0x132 s 6 E5 00 F7 F8 82 CE 
22:20:20:2013 Rx 1 0x205 s 5 00 00 00 00 00 
22:20:20:2020 Rx 1 0x5FE s 8 00 00 00 00 00 00 01 5E 
22:20:20:2216 Rx 1 0x205 s 5 00 00 00 00 00 
22:20:20:2219 Rx 1 0x205 s 5 00 00 00 00 00 
22:20:20:2305 Rx 1 0x625 s 8 00 00 00 00 00 00 00 00 
22:20:20:2307 Rx 1 0x205 s 5 00 00 00 00 00 
22:20:20:2309 Rx 1 0x121 s 6 51 FF E7 FF 3C FC 
22:20:20:2311 Rx 1 0x132 s 6 E5 00 F7 F8 85 CE 
22:20:20:2314 Rx 1 0x175 s 8 00 00 00 00 00 00 00 00 
22:20:20:2421 Rx 1 0x5FE s 8 00 00 00 00 00 00 01 5E 
22:20:20:2621 Rx 1 0x5F1 s 8 00 00 00 00 93 93 01 01 
22:20:20:2708 Rx 1 0x121 s 6 50 FF E7 FF 3E FC 
22:20:20:2710 Rx 1 0x132 s 6 E4 00 F7 F8 89 CE 
22:20:20:2720 Rx 1 0x5F2 s 8 03 F2 00 00 FF FF FF FF 
22:20:20:2823 Rx 1 0x205 s 5 00 00 00 00 00 
22:20:20:3024 Rx 1 0x205 s 5 00 00 00 00 00 
22:20:20:3108 Rx 1 0x121 s 6 50 FF E6 FF 3E FC 
22:20:20:3110 Rx 1 0x132 s 6 E4 00 F8 F8 8C CE 
22:20:20:3195 Rx 1 0x5FE s 8 00 00 00 00 00 00 01 5E 
22:20:20:3225 Rx 1 0x205 s 5 00 00 00 00 00 
22:20:20:3229 Rx 1 0x205 s 5 00 00 00 00 00 
22:20:20:3431 Rx 1 0x5FD s 8 00 00 00 00 00 00 00 00 
22:20:20:3508 Rx 1 0x121 s 6 52 FF E8 FF 3D FC 
22:20:20:3510 Rx 1 0x132 s 6 E4 00 F8 F8 90 CE 
22:20:20:3631 Rx 1 0x5FE s 8 00 00 00 00 00 00 01 5E 
22:20:20:3730 Rx 1 0x205 s 5 00 00 00 00 00 
22:20:20:3831 Rx 1 0x205 s 5 00 00 00 00 00 
22:20:20:3908 Rx 1 0x121 s 6 51 FF E4 FF 3C FC 
22:20:20:3910 Rx 1 0x132 s 6 E4 00 F8 F8 93 CE 
22:20:20:4026 Rx 1 0x205 s 5 00 00 00 00 00 
22:20:20:4032 Rx 1 0x5FE s 8 00 00 00 00 00 00 01 5E 
22:20:20:4232 Rx 1 0x205 s 5 00 00 00 00 00 
22:20:20:4235 Rx 1 0x625 s 8 00 00 00 00 00 00 00 00 
22:20:20:4307 Rx 1 0x205 s 5 00 00 00 00 00 
22:20:20:4308 Rx 1 0x121 s 6 51 FF E7 FF 3D FC 
22:20:20:4310 Rx 1 0x205 s 5 00 00 00 00 00 
22:20:20:4312 Rx 1 0x132 s 6 E4 00 F8 F8 97 CE 
22:20:20:4316 Rx 1 0x175 s 8 00 00 00 00 00 00 00 00 
22:20:20:4435 Rx 1 0x5FE s 8 00 00 00 00 00 00 01 5E 
22:20:20:4637 Rx 1 0x5F1 s 8 00 00 00 00 93 93 01 01 
22:20:20:4708 Rx 1 0x121 s 6 52 FF E7 FF 3D FC 
22:20:20:4710 Rx 1 0x132 s 6 E4 00 F8 F8 9A CE 
22:20:20:4736 Rx 1 0x5F2 s 8 03 F2 00 00 FF FF FF FF 
22:20:20:4840 Rx 1 0x205 s 5 00 00 00 00 00 
22:20:20:5040 Rx 1 0x205 s 5 00 00 00 00 00 
22:20:20:5107 Rx 1 0x121 s 6 51 FF E8 FF 3D FC 
22:20:20:5109 Rx 1 0x132 s 6 E4 00 F8 F8 9E CE 
22:20:20:5195 Rx 1 0x5FE s 8 00 00 00 00 00 00 01 5E 
22:20:20:5237 Rx 1 0x205 s 5 00 00 00 00 00 
22:20:20:5240 Rx 1 0x205 s 5 00 00 00 00 00 
22:20:20:5440 Rx 1 0x5FD s 8 00 00 00 00 00 00 00 00 
22:20:20:5508 Rx 1 0x121 s 6 51 FF E7 FF 3E FC 
22:20:20:5510 Rx 1 0x132 s 6 E5 00 F8 F8 A1 CE 
22:20:20:5642 Rx 1 0x5FE s 8 00 00 00 00 00 00 01 5E 
22:20:20:5740 Rx 1 0x205 s 5 00 00 00 00 00 
22:20:20:5841 Rx 1 0x205 s 5 00 00 00 00 00 
22:20:20:5908 Rx 1 0x121 s 6 51 FF E7 FF 3D FC 
22:20:20:5910 Rx 1 0x132 s 6 E5 00 F8 F8 A5 CE 
22:20:20:6034 Rx 1 0x205 s 5 00 00 00 00 00 
22:20:20:6043 Rx 1 0x5FE s 8 00 00 00 00 00 00 01 5E 
22:20:20:6234 Rx 1 0x205 s 5 00 00 00 00 00 
22:20:20:6244 Rx 1 0x625 s 8 00 00 00 00 00 00 00 00 
22:20:20:6246 Rx 1 0x205 s 5 00 00 00 00 00 
22:20:20:6308 Rx 1 0x121 s 6 4F FF E3 FF 3A FC 
22:20:20:6310 Rx 1 0x5FF s 8 02 BC FF F6 00 00 FF A6 
22:20:20:6312 Rx 1 0x132 s 6 E5 00 F8 F8 A8 CE 
22:20:20:6314 Rx 1 0x205 s 5 00 00 00 00 00 
22:20:20:6317 Rx 1 0x175 s 8 00 00 00 00 00 00 00 00 
22:20:20:6446 Rx 1 0x5FE s 8 00 00 00 00 00 00 01 5E 
22:20:20:6648 Rx 1 0x5F1 s 8 00 00 00 00 93 93 01 01 
22:20:20:6708 Rx 1 0x121 s 6 4F FF E7 FF 3C FC 
22:20:20:6710 Rx 1 0x132 s 6 E6 00 F7 F8 AC CE 
22:20:20:6747 Rx 1 0x5F2 s 8 03 F2 00 00 FF FF FF FF 
22:20:20:6851 Rx 1 0x205 s 5 00 00 00 00 00 
22:20:20:7051 Rx 1 0x205 s 5 00 00 00 00 00 
22:20:20:7108 Rx 1 0x121 s 6 4F FF E8 FF 3F FC 
22:20:20:7110 Rx 1 0x132 s 6 E5 00 F8 F8 B0 CE 
22:20:20:7199 Rx 1 0x5FE s 8 00 00 00 00 00 00 01 5E 
22:20:20:7248 Rx 1 0x205 s 5 00 00 00 00 00 
22:20:20:7250 Rx 1 0x205 s 5 00 00 00 00 00 
22:20:20:7451 Rx 1 0x5FD s 8 00 00 00 00 00 00 00 00 
22:20:20:7509 Rx 1 0x121 s 6 50 FF E7 FF 3B FC 
22:20:20:7510 Rx 1 0x132 s 6 E5 00 F7 F8 B3 CE 
22:20:20:7653 Rx 1 0x5FE s 8 00 00 00 00 00 00 01 5E 
22:20:20:7751 Rx 1 0x205 s 5 00 00 00 00 00 
22:20:20:7852 Rx 1 0x205 s 5 00 00 00 00 00 
22:20:20:7908 Rx 1 0x121 s 6 51 FF E6 FF 3E FC 
22:20:20:7910 Rx 1 0x132 s 6 E5 00 F7 F8 B7 CE 
22:20:20:8039 Rx 1 0x205 s 5 00 00 00 00 00 
22:20:20:8054 Rx 1 0x5FE s 8 00 00 00 00 00 00 01 5E 
22:20:20:8253 Rx 1 0x205 s 5 00 00 00 00 00 
22:20:20:8256 Rx 1 0x625 s 8 00 00 00 00 00 00 00 00 
22:20:20:8308 Rx 1 0x121 s 6 50 FF E7 FF 3D FC 
22:20:20:8317 Rx 1 0x205 s 5 00 00 00 00 00 
22:20:20:8318 Rx 1 0x132 s 6 E5 00 F7 F8 BA CE 
22:20:20:8319 Rx 1 0x205 s 5 00 00 00 00 00 
22:20:20:8319 Rx 1 0x175 s 8 00 00 00 00 00 00 00 00 
22:20:20:8457 Rx 1 0x5FE s 8 00 00 00 00 00 00 01 5E 
22:20:20:8658 Rx 1 0x5F1 s 8 00 00 00 00 93 93 01 01 
22:20:20:8708 Rx 1 0x121 s 6 50 FF E7 FF 3E FC 
22:20:20:8710 Rx 1 0x132 s 6 E6 00 F7 F8 BE CE 
22:20:20:8756 Rx 1 0x5F2 s 8 03 F2 00 00 FF FF FF FF 
22:20:20:8861 Rx 1 0x205 s 5 00 00 00 00 00 
22:20:20:9061 Rx 1 0x205 s 5 00 00 00 00 00 
22:20:20:9108 Rx 1 0x121 s 6 50 FF E5 FF 3D FC 
22:20:20:9109 Rx 1 0x132 s 6 E6 00 F7 F8 C2 CE 
22:20:20:9199 Rx 1 0x5FE s 8 00 00 00 00 00 00 01 5E 
22:20:20:9260 Rx 1 0x205 s 5 00 00 00 00 00 
22:20:20:9266 Rx 1 0x205 s 5 00 00 00 00 00 
22:20:20:9467 Rx 1 0x5FD s 8 00 00 00 00 00 00 00 00 
22:20:20:9508 Rx 1 0x121 s 6 50 FF E6 FF 3D FC 
22:20:20:9510 Rx 1 0x132 s 6 E6 00 F7 F8 C5 CE 
22:20:20:9669 Rx 1 0x5FE s 8 00 00 00 00 00 00 01 5E 
22:20:20:9764 Rx 1 0x205 s 5 00 00 00 00 00 
22:20:20:9872 Rx 1 0x205 s 5 00 00 00 00 00 
22:20:20:9908 Rx 1 0x121 s 6 51 FF E7 FF 3D FC 
22:20:20:9910 Rx 1 0x132 s 6 E6 00 F8 F8 C9 CE 
22:20:21:0044 Rx 1 0x205 s 5 00 00 00 00 00 
22:20:21:0075 Rx 1 0x5FE s 8 00 00 00 00 00 00 01 5E 
22:20:21:0265 Rx 1 0x205 s 5 00 00 00 00 00 
22:20:21:0275 Rx 1 0x625 s 8 00 00 00 00 00 00 00 00 
22:20:21:0308 Rx 1 0x121 s 6 50 FF E5 FF 3D FC 
22:20:21:0310 Rx 1 0x205 s 5 00 00 00 00 00 
22:20:21:0312 Rx 1 0x132 s 6 E6 00 F8 F8 CD CE 
22:20:21:0314 Rx 1 0x5FE s 8 00 00 00 00 00 00 01 5E 
22:20:21:0317 Rx 1 0x175 s 8 00 00 00 00 00 00 00 00 
22:20:21:0476 Rx 1 0x205 s 5 00 00 00 00 00 
22:20:21:0679 Rx 1 0x5F1 s 8 00 00 00 00 93 93 01 01 
22:20:21:0708 Rx 1 0x121 s 6 50 FF E5 FF 3B FC 
22:20:21:0710 Rx 1 0x132 s 6 E6 00 F8 F8 D0 CE 
22:20:21:0768 Rx 1 0x5F2 s 8 03 F2 00 00 FF FF FF FF 
22:20:21:0878 Rx 1 0x205 s 5 00 00 00 00 00 
22:20:21:1082 Rx 1 0x205 s 5 00 00 00 00 00 
22:20:21:1108 Rx 1 0x121 s 6 4F FF E5 FF 3C FC 
22:20:21:1111 Rx 1 0x132 s 6 E6 00 F7 F8 D4 CE 
22:20:21:1203 Rx 1 0x5FE s 8 00 00 00 00 00 00 01 5E 
22:20:21:1235 Rx 1 0x205 s 5 00 00 00 00 00 
22:20:21:1269 Rx 1 0x205 s 5 00 00 00 00 00 
22:20:21:1282 Rx 1 0x5FD s 8 00 00 00 00 00 00 00 00 
22:20:21:1484 Rx 1 0x5FF s 8 02 BC FF F6 00 00 FF A6 
22:20:21:1508 Rx 1 0x121 s 6 50 FF E9 FF 3D FC 
22:20:21:1513 Rx 1 0x132 s 6 E6 00 F8 F8 D8 CE 
22:20:21:1687 Rx 1 0x5FE s 8 00 00 00 00 00 00 01 5E 
22:20:21:1773 Rx 1 0x205 s 5 00 00 00 00 00 
22:20:21:1884 Rx 1 0x205 s 5 00 00 00 00 00 
22:20:21:1908 Rx 1 0x121 s 6 51 FF E6 FF 3E FC 
22:20:21:1911 Rx 1 0x132 s 6 E6 00 F8 F8 DB CE 
22:20:21:2044 Rx 1 0x205 s 5 00 00 00 00 00 
22:20:21:2086 Rx 1 0x5FE s 8 00 00 00 00 00 00 01 5E 
22:20:21:2276 Rx 1 0x205 s 5 00 00 00 00 00 
22:20:21:2287 Rx 1 0x625 s 8 00 00 00 00 00 00 00 00 
22:20:21:2308 Rx 1 0x121 s 6 51 FF E6 FF 3D FC 
22:20:21:2318 Rx 1 0x132 s 6 E5 00 F8 F8 DF CE 
22:20:21:2319 Rx 1 0x205 s 5 00 00 00 00 00 
22:20:21:2320 Rx 1 0x175 s 8 00 00 00 00 00 00 00 00 
22:20:21:2321 Rx 1 0x5FE s 8 00 00 00 00 00 00 01 5E 
22:20:21:2487 Rx 1 0x205 s 5 00 00 00 00 00 
22:20:21:2703 Rx 1 0x5F1 s 8 00 00 00 00 93 93 01 01 
22:20:21:2707 Rx 1 0x121 s 6 50 FF E5 FF 3B FC 
22:20:21:2709 Rx 1 0x132 s 6 E6 00 F8 F8 E2 CE 
22:20:21:2781 Rx 1 0x5F2 s 8 03 F2 00 00 FF FF FF FF 
22:20:21:2904 Rx 1 0x205 s 5 00 00 00 00 00 
22:20:21:3104 Rx 1 0x205 s 5 00 00 00 00 00 
22:20:21:3107 Rx 1 0x121 s 6 51 FF E8 FF 3E FC 
22:20:21:3109 Rx 1 0x132 s 6 E6 00 F8 F8 E6 CE 
22:20:21:3203 Rx 1 0x5FE s 8 00 00 00 00 00 00 01 5E 
22:20:21:3284 Rx 1 0x205 s 5 00 00 00 00 00 
22:20:21:3307 Rx 1 0x205 s 5 00 00 00 00 00 
22:20:21:3508 Rx 1 0x121 s 6 50 FF E6 FF 3E FC 
22:20:21:3510 Rx 1 0x5FD s 8 00 00 00 00 00 00 00 00 
22:20:21:3512 Rx 1 0x132 s 6 E6 00 F8 F8 EA CE 
22:20:21:3710 Rx 1 0x5FE s 8 00 00 00 00 00 00 01 5E 
22:20:21:3784 Rx 1 0x205 s 5 00 00 00 00 00 
22:20:21:3908 Rx 1 0x121 s 6 51 FF E6 FF 3C FC 
22:20:21:3910 Rx 1 0x132 s 6 E6 00 F8 F8 ED CE 
22:20:21:3913 Rx 1 0x205 s 5 00 00 00 00 00 
22:20:21:4048 Rx 1 0x205 s 5 00 00 00 00 00 
22:20:21:4116 Rx 1 0x5FE s 8 00 00 00 00 00 00 01 5E 
22:20:21:4286 Rx 1 0x205 s 5 00 00 00 00 00 
22:20:21:4308 Rx 1 0x121 s 6 4F FF E6 FF 3D FC 
22:20:21:4313 Rx 1 0x132 s 6 E6 00 F8 F8 F1 CE 
22:20:21:4317 Rx 1 0x175 s 8 00 00 00 00 00 00 00 00 
22:20:21:4322 Rx 1 0x625 s 8 00 00 00 00 00 00 00 00 
22:20:21:4324 Rx 1 0x205 s 5 00 00 00 00 00 
22:20:21:4329 Rx 1 0x5FE s 8 00 00 00 00 00 00 01 5E 
22:20:21:4518 Rx 1 0x5F1 s 8 00 00 00 00 93 93 01 01 
22:20:21:4708 Rx 1 0x121 s 6 51 FF E7 FF 3E FC 
22:20:21:4709 Rx 1 0x132 s 6 E6 00 F8 F8 F4 CE 
22:20:21:4723 Rx 1 0x5F2 s 8 03 F2 00 00 FF FF FF FF 
22:20:21:4789 Rx 1 0x205 s 5 00 00 00 00 00 
22:20:21:4923 Rx 1 0x205 s 5 00 00 00 00 00 
22:20:21:5108 Rx 1 0x121 s 6 51 FF E4 FF 3D FC 
22:20:21:5110 Rx 1 0x132 s 6 E6 00 F8 F8 F8 CE 
22:20:21:5124 Rx 1 0x205 s 5 00 00 00 00 00 
22:20:21:5205 Rx 1 0x5FE s 8 00 00 00 00 00 00 01 5E 
22:20:21:5290 Rx 1 0x205 s 5 00 00 00 00 00 
22:20:21:5325 Rx 1 0x205 s 5 00 00 00 00 00 
22:20:21:5508 Rx 1 0x121 s 6 50 FF E6 FF 3D FC 
22:20:21:5510 Rx 1 0x132 s 6 E6 00 F8 F8 FB CE 
22:20:21:5529 Rx 1 0x5FD s 8 00 00 00 00 00 00 00 00 
22:20:21:5729 Rx 1 0x5FE s 8 00 00 00 00 00 00 01 5E 
22:20:21:5795 Rx 1 0x205 s 5 00 00 00 00 00 
22:20:21:5908 Rx 1 0x121 s 6 50 FF E7 FF 3D FC 
22:20:21:5910 Rx 1 0x132 s 6 E6 00 F8 F8 FF CE 
22:20:21:5928 Rx 1 0x205 s 5 00 00 00 00 00 
22:20:21:6048 Rx 1 0x205 s 5 00 00 00 00 00 
22:20:21:6130 Rx 1 0x5FE s 8 00 00 00 00 00 00 01 5E 
22:20:21:6239 Rx 1 0x205 s 5 00 00 00 00 00 
22:20:21:6298 Rx 1 0x625 s 8 00 00 00 00 00 00 00 00 
22:20:21:6308 Rx 1 0x121 s 6 50 FF E6 FF 3C FC 
22:20:21:6310 Rx 1 0x132 s 6 E6 00 F8 F8 03 CF 
22:20:21:6312 Rx 1 0x175 s 8 00 00 00 00 00 00 00 00 
22:20:21:6315 Rx 1 0x205 s 5 00 00 00 00 00 
22:20:21:6318 Rx 1 0x5FF s 8 02 BC FF F6 00 00 FF A6 
22:20:21:6332 Rx 1 0x5FE s 8 00 00 00 00 00 00 01 5E 
22:20:21:6536 Rx 1 0x5F1 s 8 00 00 00 00 93 93 01 01 
22:20:21:6708 Rx 1 0x121 s 6 50 FF E6 FF 3E FC 
22:20:21:6709 Rx 1 0x132 s 6 E6 00 F8 F8 06 CF 
22:20:21:6737 Rx 1 0x5F2 s 8 03 F2 00 00 FF FF FF FF 
22:20:21:6798 Rx 1 0x205 s 5 00 00 00 00 00 
22:20:21:6937 Rx 1 0x205 s 5 00 00 00 00 00 
22:20:21:7108 Rx 1 0x121 s 6 52 FF E9 FF 3D FC 
22:20:21:7109 Rx 1 0x132 s 6 E6 00 F8 F8 0A CF 
22:20:21:7137 Rx 1 0x205 s 5 00 00 00 00 00 
22:20:21:7208 Rx 1 0x5FE s 8 00 00 00 00 00 00 01 5E 
22:20:21:7301 Rx 1 0x205 s 5 00 00 00 00 00 
22:20:21:7337 Rx 1 0x205 s 5 00 00 00 00 00 
22:20:21:7508 Rx 1 0x121 s 6 51 FF E7 FF 3E FC 
22:20:21:7510 Rx 1 0x132 s 6 E6 00 F8 F8 0E CF 
22:20:21:7537 Rx 1 0x5FD s 8 00 00 00 00 00 00 00 00 
22:20:21:7738 Rx 1 0x5FE s 8 00 00 00 00 00 00 01 5E 
22:20:21:7804 Rx 1 0x205 s 5 00 00 00 00 00 
22:20:21:7908 Rx 1 0x121 s 6 50 FF E6 FF 3D FC 
22:20:21:7910 Rx 1 0x132 s 6 E6 00 F8 F8 11 CF 
22:20:21:7940 Rx 1 0x205 s 5 00 00 00 00 00 
22:20:21:8050 Rx 1 0x205 s 5 00 00 00 00 00 
22:20:21:8143 Rx 1 0x5FE s 8 00 00 00 00 00 00 01 5E 
22:20:21:8306 Rx 1 0x205 s 5 00 00 00 00 00 
22:20:21:8308 Rx 1 0x121 s 6 50 FF E7 FF 3E FC 
22:20:21:8311 Rx 1 0x132 s 6 E6 00 F8 F8 15 CF 
22:20:21:8313 Rx 1 0x175 s 8 00 00 00 00 00 00 00 00 
22:20:21:8319 Rx 1 0x625 s 8 00 00 00 00 00 00 00 00 
22:20:21:8321 Rx 1 0x205 s 5 00 00 00 00 00 
22:20:21:8345 Rx 1 0x5FE s 8 00 00 00 00 00 00 01 5E 
22:20:21:8549 Rx 1 0x5F1 s 8 00 00 00 00 93 93 01 01 
22:20:21:8708 Rx 1 0x121 s 6 51 FF E4 FF 3D FC 
22:20:21:8711 Rx 1 0x132 s 6 E6 00 F8 F8 18 CF 
22:20:21:8751 Rx 1 0x5F2 s 8 03 F2 00 00 FF FF FF FF 
22:20:21:8808 Rx 1 0x205 s 5 00 00 00 00 00 
22:20:21:8952 Rx 1 0x205 s 5 00 00 00 00 00 
22:20:21:9108 Rx 1 0x121 s 6 51 FF E6 FF 3C FC 
22:20:21:9110 Rx 1 0x132 s 6 E6 00 F8 F8 1C CF 
22:20:21:9152 Rx 1 0x205 s 5 00 00 00 00 00 
22:20:21:9213 Rx 1 0x5FE s 8 00 00 00 00 00 00 01 5E 
22:20:21:9316 Rx 1 0x205 s 5 00 00 00 00 00 
22:20:21:9361 Rx 1 0x205 s 5 00 00 00 00 00 
22:20:21:9366 Rx 1 0x5FD s 8 00 00 00 00 00 00 00 00 
22:20:21:9369 Rx 1 0x5FE s 8 00 00 00 00 00 00 01 5E 
22:20:21:9508 Rx 1 0x121 s 6 50 FF E5 FF 3E FC 
22:20:21:9510 Rx 1 0x132 s 6 E6 00 F8 F8 1F CF 
22:20:21:9562 Rx 1 0x205 s 5 00 00 00 00 00 
22:20:21:9762 Rx 1 0x200 s 0 
22:20:21:9820 Rx 1 0x201 s 8 00 00 0F 00 14 14 00 00 
22:20:21:9908 Rx 1 0x121 s 6 51 FF E7 FF 3D FC 
22:20:21:9911 Rx 1 0x132 s 6 E6 00 F8 F8 23 CF 
22:20:21:9965 Rx 1 0x205 s 5 00 00 00 00 00 
22:20:22:0052 Rx 1 0x205 s 5 00 00 00 00 00 
22:20:22:0169 Rx 1 0x5FE s 8 00 00 00 00 00 00 01 5E 
22:20:22:0308 Rx 1 0x121 s 6 51 FF E5 FF 3D FC 
22:20:22:0309 Rx 1 0x132 s 6 E6 00 F8 F8 26 CF 
22:20:22:0312 Rx 1 0x175 s 8 00 00 00 00 00 00 00 00 
22:20:22:0322 Rx 1 0x205 s 5 00 00 00 00 00 
22:20:22:0325 Rx 1 0x625 s 8 00 00 00 00 00 00 00 00 
22:20:22:0327 Rx 1 0x205 s 5 00 00 00 00 00 
22:20:22:0371 Rx 1 0x5F1 s 8 00 00 00 00 93 93 01 01 
22:20:22:0575 Rx 1 0x5F2 s 8 03 F2 00 00 FF FF FF FF 
22:20:22:0708 Rx 1 0x121 s 6 50 FF E6 FF 3D FC 
22:20:22:0709 Rx 1 0x132 s 6 E6 00 F8 F8 2A CF 
22:20:22:0776 Rx 1 0x5FE s 8 00 00 00 00 00 00 01 5E 
22:20:22:0825 Rx 1 0x205 s 5 00 00 00 00 00 
22:20:22:0976 Rx 1 0x205 s 5 00 00 00 00 00 
22:20:22:1107 Rx 1 0x121 s 6 51 FF E8 FF 3C FC 
22:20:22:1110 Rx 1 0x132 s 6 E6 00 F8 F8 2E CF 
22:20:22:1178 Rx 1 0x205 s 5 00 00 00 00 00 
22:20:22:1215 Rx 1 0x5FE s 8 00 00 00 00 00 00 01 5E 
22:20:22:1241 Rx 1 0x205 s 5 00 00 00 00 00 
22:20:22:1327 Rx 1 0x205 s 5 00 00 00 00 00 
22:20:22:1386 Rx 1 0x5FD s 8 00 00 00 00 00 00 00 00 
22:20:22:1508 Rx 1 0x121 s 6 50 FF E6 FF 3E FC 
22:20:22:1510 Rx 1 0x132 s 6 E6 00 F8 F8 31 CF 
22:20:22:1587 Rx 1 0x5FF s 8 02 BC FF F6 00 00 FF A6 
22:20:22:1787 Rx 1 0x5FE s 8 00 00 00 00 00 00 01 5E 
22:20:22:1831 Rx 1 0x205 s 5 00 00 00 00 00 
22:20:22:1908 Rx 1 0x121 s 6 51 FF E8 FF 3E FC 
22:20:22:1910 Rx 1 0x132 s 6 E6 00 F8 F8 35 CF 
22:20:22:1990 Rx 1 0x205 s 5 00 00 00 00 00 
22:20:22:2054 Rx 1 0x205 s 5 00 00 00 00 00 
22:20:22:2193 Rx 1 0x5FE s 8 00 00 00 00 00 00 01 5E 
22:20:22:2308 Rx 1 0x121 s 6 50 FF E6 FF 3D FC 
22:20:22:2310 Rx 1 0x132 s 6 E6 00 F8 F8 39 CF 
22:20:22:2312 Rx 1 0x175 s 8 00 00 00 00 00 00 00 00 
22:20:22:2322 Rx 1 0x205 s 5 00 00 00 00 00 
22:20:22:2326 Rx 1 0x625 s 8 00 00 00 00 00 00 00 00 
22:20:22:2333 Rx 1 0x205 s 5 00 00 00 00 00 
22:20:22:2396 Rx 1 0x5F1 s 8 00 00 00 00 93 93 01 01 
22:20:22:2599 Rx 1 0x5F2 s 8 03 F2 00 00 FF FF FF FF 
22:20:22:2707 Rx 1 0x121 s 6 51 FF E8 FF 3D FC 
22:20:22:2709 Rx 1 0x132 s 6 E6 00 F8 F8 3C CF 
22:20:22:2801 Rx 1 0x5FE s 8 00 00 00 00 00 00 01 5E 
22:20:22:2835 Rx 1 0x205 s 5 00 00 00 00 00 
22:20:22:3001 Rx 1 0x205 s 5 00 00 00 00 00 
22:20:22:3108 Rx 1 0x121 s 6 4F FF E5 FF 3D FC 
22:20:22:3110 Rx 1 0x132 s 6 E6 00 F8 F8 40 CF 
22:20:22:3201 Rx 1 0x205 s 5 00 00 00 00 00 
22:20:22:3215 Rx 1 0x5FE s 8 00 00 00 00 00 00 01 5E 
22:20:22:3338 Rx 1 0x205 s 5 00 00 00 00 00 
22:20:22:3400 Rx 1 0x205 s 5 00 00 00 00 00 
22:20:22:3508 Rx 1 0x121 s 6 50 FF E7 FF 3C FC 
22:20:22:3510 Rx 1 0x132 s 6 E6 00 F8 F8 43 CF 
22:20:22:3602 Rx 1 0x5FD s 8 00 00 00 00 00 00 00 00 
22:20:22:3803 Rx 1 0x5FE s 8 00 00 00 00 00 00 01 5E 
22:20:22:3841 Rx 1 0x205 s 5 00 00 00 00 00 
22:20:22:3907 Rx 1 0x121 s 6 50 FF E8 FF 3D FC 
22:20:22:3909 Rx 1 0x132 s 6 E6 00 F8 F8 47 CF 
22:20:22:4005 Rx 1 0x205 s 5 00 00 00 00 00 
22:20:22:4054 Rx 1 0x205 s 5 00 00 00 00 00 
22:20:22:4209 Rx 1 0x5FE s 8 00 00 00 00 00 00 01 5E 
22:20:22:4308 Rx 1 0x121 s 6 51 FF E7 FF 3D FC 
22:20:22:4310 Rx 1 0x132 s 6 E6 00 F8 F8 4B CF 
22:20:22:4312 Rx 1 0x175 s 8 00 00 00 00 00 00 00 00 
22:20:22:4325 Rx 1 0x205 s 5 00 00 00 00 00 
22:20:22:4328 Rx 1 0x625 s 8 00 00 00 00 00 00 00 00 
22:20:22:4344 Rx 1 0x205 s 5 00 00 00 00 00 
22:20:22:4411 Rx 1 0x5F1 s 8 00 00 00 00 93 93 01 01 
22:20:22:4615 Rx 1 0x5F2 s 8 03 F2 00 00 FF FF FF FF 
22:20:22:4707 Rx 1 0x121 s 6 52 FF E7 FF 3E FC 
22:20:22:4709 Rx 1 0x132 s 6 E6 00 F8 F8 4E CF 
22:20:22:4817 Rx 1 0x5FE s 8 00 00 00 00 00 00 01 5E 
22:20:22:4845 Rx 1 0x205 s 5 00 00 00 00 00 
22:20:22:5017 Rx 1 0x205 s 5 00 00 00 00 00 
22:20:22:5107 Rx 1 0x121 s 6 50 FF E7 FF 3D FC 
22:20:22:5109 Rx 1 0x132 s 6 E6 00 F8 F8 52 CF 
22:20:22:5215 Rx 1 0x205 s 5 00 00 00 00 00 
22:20:22:5218 Rx 1 0x5FE s 8 00 00 00 00 00 00 01 5E 
22:20:22:5357 Rx 1 0x205 s 5 00 00 00 00 00 
22:20:22:5420 Rx 1 0x5FD s 8 00 00 00 00 00 00 00 00 
22:20:22:5508 Rx 1 0x121 s 6 52 FF E5 FF 3D FC 
22:20:22:5510 Rx 1 0x132 s 6 E6 00 F8 F8 56 CF 
22:20:22:5620 Rx 1 0x205 s 5 00 00 00 00 00 
22:20:22:5821 Rx 1 0x5FE s 8 00 00 00 00 00 00 01 5E 
22:20:22:5857 Rx 1 0x205 s 5 00 00 00 00 00 
22:20:22:5908 Rx 1 0x121 s 6 4F FF E6 FF 3D FC 
22:20:22:5909 Rx 1 0x132 s 6 E6 00 F8 F8 59 CF 
22:20:22:6022 Rx 1 0x205 s 5 00 00 00 00 00 
22:20:22:6058 Rx 1 0x205 s 5 00 00 00 00 00 
22:20:22:6226 Rx 1 0x5FE s 8 00 00 00 00 00 00 01 5E 
22:20:22:6244 Rx 1 0x205 s 5 00 00 00 00 00 
22:20:22:6308 Rx 1 0x121 s 6 50 FF E7 FF 3C FC 
22:20:22:6311 Rx 1 0x132 s 6 E6 00 F8 F8 5D CF 
22:20:22:6312 Rx 1 0x175 s 8 00 00 00 00 00 00 00 00 
22:20:22:6327 Rx 1 0x625 s 8 00 00 00 00 00 00 00 00 
22:20:22:6329 Rx 1 0x205 s 5 00 00 00 00 00 
22:20:22:6359 Rx 1 0x5FF s 8 02 BC FF F6 00 00 FF A6 
22:20:22:6430 Rx 1 0x5F1 s 8 00 00 00 00 93 93 01 01 
22:20:22:6632 Rx 1 0x5F2 s 8 03 F2 00 00 FF FF FF FF 
22:20:22:6707 Rx 1 0x121 s 6 52 FF E7 FF 3D FC 
22:20:22:6709 Rx 1 0x132 s 6 E6 00 F8 F8 60 CF 
22:20:22:6835 Rx 1 0x5FE s 8 00 00 00 00 00 00 01 5E 
22:20:22:6863 Rx 1 0x205 s 5 00 00 00 00 00 
22:20:22:7035 Rx 1 0x205 s 5 00 00 00 00 00 
22:20:22:7108 Rx 1 0x121 s 6 51 FF E8 FF 3F FC 
22:20:22:7110 Rx 1 0x132 s 6 E6 00 F8 F8 64 CF 
22:20:22:7219 Rx 1 0x205 s 5 00 00 00 00 00 
22:20:22:7235 Rx 1 0x5FE s 8 00 00 00 00 00 00 01 5E 
22:20:22:7366 Rx 1 0x205 s 5 00 00 00 00 00 
22:20:22:7436 Rx 1 0x5FD s 8 00 00 00 00 00 00 00 00 
22:20:22:7508 Rx 1 0x121 s 6 52 FF E6 FF 3D FC 
22:20:22:7510 Rx 1 0x132 s 6 E6 00 F8 F8 68 CF 
22:20:22:7635 Rx 1 0x205 s 5 00 00 00 00 00 
22:20:22:7836 Rx 1 0x5FE s 8 00 00 00 00 00 00 01 5E 
22:20:22:7869 Rx 1 0x205 s 5 00 00 00 00 00 
22:20:22:7907 Rx 1 0x121 s 6 50 FF E5 FF 3C FC 
22:20:22:7909 Rx 1 0x132 s 6 E6 00 F8 F8 6B CF 
22:20:22:8037 Rx 1 0x205 s 5 00 00 00 00 00 
22:20:22:8059 Rx 1 0x205 s 5 00 00 00 00 00 
22:20:22:8237 Rx 1 0x5FE s 8 00 00 00 00 00 00 01 5E 
22:20:22:8308 Rx 1 0x121 s 6 51 FF E7 FF 3E FC 
22:20:22:8310 Rx 1 0x132 s 6 E6 00 F8 F8 6F CF 
22:20:22:8312 Rx 1 0x175 s 8 00 00 00 00 00 00 00 00 
22:20:22:8327 Rx 1 0x205 s 5 00 00 00 00 00 
22:20:22:8330 Rx 1 0x625 s 8 00 00 00 00 00 00 00 00 
22:20:22:8372 Rx 1 0x205 s 5 00 00 00 00 00 
22:20:22:8440 Rx 1 0x5F1 s 8 00 00 00 00 93 93 01 01 
22:20:22:8643 Rx 1 0x5F2 s 8 03 F2 00 00 FF 32 FF FF 
22:20:22:8707 Rx 1 0x121 s 6 51 FF E7 FF 3D FC 
22:20:22:8709 Rx 1 0x132 s 6 E6 00 F8 F8 73 CF 
22:20:22:8841 Rx 1 0x5FE s 8 00 00 00 00 00 00 01 5E 
22:20:22:8874 Rx 1 0x205 s 5 00 00 00 00 00 
22:20:22:9040 Rx 1 0x205 s 5 00 00 00 00 00 
22:20:22:9107 Rx 1 0x121 s 6 52 FF E5 FF 3B FC 
22:20:22:9110 Rx 1 0x132 s 6 E6 00 F8 F8 76 CF 
22:20:22:9221 Rx 1 0x205 s 5 00 00 00 00 00 
22:20:22:9240 Rx 1 0x5FE s 8 00 00 00 00 00 00 01 5E 
22:20:22:9377 Rx 1 0x205 s 5 00 00 00 00 00 
22:20:22:9441 Rx 1 0x5FD s 8 00 00 00 00 00 00 00 00 
22:20:22:9509 Rx 1 0x121 s 6 51 FF E8 FF 3E FC 
22:20:22:9519 Rx 1 0x132 s 6 E6 00 F8 F8 7A CF 
22:20:22:9642 Rx 1 0x205 s 5 00 00 00 00 00 
22:20:22:9843 Rx 1 0x5FE s 8 00 00 00 00 00 00 01 5E 
22:20:22:9880 Rx 1 0x205 s 5 00 00 00 00 00 
22:20:22:9907 Rx 1 0x121 s 6 50 FF E6 FF 3D FC 
22:20:22:9910 Rx 1 0x132 s 6 E6 00 F8 F8 7E CF 
22:20:23:0043 Rx 1 0x205 s 5 00 00 00 00 00 
22:20:23:0059 Rx 1 0x205 s 5 00 00 00 00 00 
22:20:23:0244 Rx 1 0x5FE s 8 00 00 00 00 00 00 01 5E 
22:20:23:0308 Rx 1 0x121 s 6 51 FF E7 FF 3C FC 
22:20:23:0319 Rx 1 0x132 s 6 E6 00 F8 F8 81 CF 
22:20:23:0325 Rx 1 0x175 s 8 00 00 00 00 00 00 00 00 
22:20:23:0330 Rx 1 0x205 s 5 00 00 00 00 00 
22:20:23:0340 Rx 1 0x625 s 8 00 00 00 00 00 00 00 00 
22:20:23:0383 Rx 1 0x205 s 5 00 00 00 00 00 
22:20:23:0446 Rx 1 0x5F1 s 8 00 00 00 00 93 93 01 01 
22:20:23:0649 Rx 1 0x5F2 s 8 03 F2 00 00 FE F6 FF FF 
22:20:23:0708 Rx 1 0x121 s 6 50 FF E5 FF 3D FC 
22:20:23:0710 Rx 1 0x132 s 6 E6 00 F8 F8 85 CF 
22:20:23:0853 Rx 1 0x5FE s 8 00 00 00 00 00 00 01 5E 
22:20:23:0886 Rx 1 0x205 s 5 00 00 00 00 00 
22:20:23:1052 Rx 1 0x205 s 5 00 00 00 00 00 
22:20:23:1107 Rx 1 0x121 s 6 50 FF E7 FF 3E FC 
22:20:23:1109 Rx 1 0x132 s 6 E6 00 F8 F8 89 CF 
22:20:23:1221 Rx 1 0x205 s 5 00 00 00 00 00 
22:20:23:1245 Rx 1 0x5FE s 8 00 00 00 00 00 00 01 5E 
22:20:23:1252 Rx 1 0x205 s 5 00 00 00 00 00 
22:20:23:1391 Rx 1 0x5FD s 8 00 00 00 00 00 00 00 00 
22:20:23:1454 Rx 1 0x5FF s 8 02 BC FF F6 00 00 FF A6 
22:20:23:1508 Rx 1 0x121 s 6 50 FF E7 FF 3E FC 
22:20:23:1510 Rx 1 0x132 s 6 E6 00 F8 F8 8C CF 
22:20:23:1655 Rx 1 0x205 s 5 00 00 00 00 00 
22:20:23:1860 Rx 1 0x5FE s 8 00 00 00 00 00 00 01 5E 
22:20:23:1893 Rx 1 0x205 s 5 00 00 00 00 00 
22:20:23:1907 Rx 1 0x121 s 6 51 FF E7 FF 3E FC 
22:20:23:1909 Rx 1 0x132 s 6 E6 00 F8 F8 90 CF 
22:20:23:2060 Rx 1 0x205 s 5 00 00 00 00 00 
22:20:23:2062 Rx 1 0x205 s 5 00 00 00 00 00 
